Vin		Vout		I_out_DC		CM		CO		CI		
 -0.45	-0.45	-2.9448230000000002e-05	1.2675571052631579e-17	1.7566252631578946e-17	2.0224244736842102e-17	
-0.45	-0.35	-2.70346492e-05	1.3183618631578946e-17	1.726623642105263e-17	2.0324960315789473e-17	
-0.45	-0.25	-2.5326568506499998e-05	1.3477613550921053e-17	1.745969395078947e-17	2.0424860133289474e-17	
-0.45	-0.15	-2.3722903572399998e-05	1.3624420112526313e-17	1.732413345915789e-17	2.0508421992736843e-17	
-0.45	-0.05	-2.21385001100166e-05	1.3694263128942997e-17	1.7336552689482417e-17	2.0553131607899105e-17	
-0.45	0.05	-2.05404999414282e-05	1.3726131594360997e-17	1.730165786390958e-17	2.0542052616165312e-17	
-0.45	0.15	-1.88820998400291e-05	1.3738578989466026e-17	1.7329920968436368e-17	2.052055258948134e-17	
-0.45	0.25	-1.70884997400005e-05	1.3742763226315655e-17	1.7395105126316053e-17	2.0496368352631713e-17	
-0.45	0.35	-1.5092299639999799e-05	1.3745894831578996e-17	1.7504920863157785e-17	2.0467210431578895e-17	
-0.45	0.45	-1.28659995399996e-05	1.3754158015789576e-17	1.766357870526295e-17	2.0430499878947263e-17	
-0.45	0.55	-1.04057994399994e-05	1.3783368568421207e-17	1.789831549473652e-17	2.0375947221052473e-17	
-0.45	0.65	-7.713899336969101e-06	1.3903237016587077e-17	1.8317104914194267e-17	2.0254684036044493e-17	
-0.45	0.75	-4.7942970394e-06	1.4450369200157893e-17	1.973499844178947e-17	1.984276237878947e-17	
-0.45	0.85	-1.6522785966000001e-06	1.572805826405263e-17	2.558527820873683e-17	1.8929310156999995e-17	
-0.45	0.95	1.7506989e-06	1.5963052342105262e-17	2.2128605842105254e-17	1.8803131868421053e-17	
-0.45	1.05	5.6116919e-06	1.5569839973684208e-17	2.1984635842105262e-17	1.9069317921052635e-17	
-0.45	1.15	9.8646508e-06	1.5333329157894736e-17	2.5370341684210526e-17	1.9229723473684206e-17	
-0.45	1.25	1.44654767e-05	1.5329993868421052e-17	2.5078670157894736e-17	1.9268637710526313e-17	
-0.45	1.35	1.97993639e-05	1.5335306289473682e-17	2.5849440052631573e-17	1.9330272657894736e-17	
-0.35	-0.45	-2.6872044e-05	1.2004751578947368e-17	1.755907578947368e-17	2.0003695789473682e-17	
-0.35	-0.35	-2.40970496e-05	1.2659881684210525e-17	1.7222368210526316e-17	2.0063434105263152e-17	
-0.35	-0.25	-2.22961685169e-05	1.3161850390289471e-17	1.744043079836842e-17	2.012130750444737e-17	
-0.35	-0.15	-2.07396035726e-05	1.3450999059842102e-17	1.7328791354e-17	2.016694830857895e-17	
-0.35	-0.05	-1.92593001100201e-05	1.3594263128942076e-17	1.7356815847379e-17	2.01861579236895e-17	
-0.35	0.05	-1.78017999414276e-05	1.3660763173308522e-17	1.7329315758646105e-17	2.0168578931954632e-17	
-0.35	0.15	-1.6340099840028e-05	1.3689184252624209e-17	1.736176307369895e-17	2.0143973642112626e-17	
-0.35	0.25	-1.48268997399987e-05	1.3698605331579288e-17	1.743199986315721e-17	2.011802624736808e-17	
-0.35	0.35	-1.31803996399968e-05	1.370092114736926e-17	1.7546605073682528e-17	2.008807885263074e-17	
-0.35	0.45	-1.13245995399948e-05	1.3705026436843472e-17	1.7704894494734103e-17	2.0050499878945997e-17	
-0.35	0.55	-9.228899439991301e-06	1.3722921200002287e-17	1.7925052336837526e-17	1.9998499852629286e-17	
-0.35	0.65	-6.8890993399855e-06	1.3801421226319606e-17	1.8270341757887102e-17	1.9899736668417234e-17	
-0.35	0.75	-4.3085992369448e-06	1.4234684411330314e-17	1.9190052229970943e-17	1.954394716761705e-17	
-0.35	0.85	-1.4932969391e-06	1.554952712128947e-17	2.412173523110526e-17	1.8600157089236838e-17	
-0.35	0.95	1.6028215145999999e-06	1.5855374082789473e-17	2.2869936044947362e-17	1.8431652232999996e-17	
-0.35	1.05	5.2205992e-06	1.5465105052631578e-17	2.1834500421052624e-17	1.8700894947368417e-17	
-0.35	1.15	9.2637925e-06	1.5313208552631575e-17	2.59163197368421e-17	1.8838291447368417e-17	
-0.35	1.25	1.36470526e-05	1.5275987526315787e-17	2.533065652631578e-17	1.894930194736842e-17	
-0.35	1.35	1.87140806e-05	1.5293389631578946e-17	2.5990668105263148e-17	1.901837352631579e-17	
-0.25	-0.45	-2.4683112100000002e-05	1.1344075763157894e-17	1.7630690578947365e-17	1.9946371605263157e-17	
-0.25	-0.35	-2.13714549e-05	1.1951353973684208e-17	1.725642363157895e-17	1.998001444736842e-17	
-0.25	-0.25	-1.9338968655399998e-05	1.2609034564368417e-17	1.7431351923894736e-17	2.0011649646157898e-17	
-0.25	-0.15	-1.7752903575700002e-05	1.3113604322184208e-17	1.733331767142105e-17	2.003347462518421e-17	
-0.25	-0.05	-1.6344500110072e-05	1.340305260261263e-17	1.7381736900037894e-17	2.0035315818439994e-17	
-0.25	0.05	-1.50013999414191e-05	1.3545421068047603e-17	1.7366763127062683e-17	2.0010289458268177e-17	
-0.25	0.15	-1.3688299840012101e-05	1.3610552673681023e-17	1.740481570526953e-17	1.997913153684529e-17	
-0.25	0.25	-1.23825997399722e-05	1.3637342173691525e-17	1.7477341968406416e-17	1.9946263089466365e-17	
-0.25	0.35	-1.1037699639952999e-05	1.3645131673696578e-17	1.7595789284185786e-17	1.9911210431566573e-17	
-0.25	0.45	-9.5636995399221e-06	1.3647473805283658e-17	1.775718396838005e-17	1.9869894615768974e-17	
-0.25	0.55	-7.8738994398707e-06	1.3657473831612972e-17	1.7970394442037208e-17	1.981552616838703e-17	
-0.25	0.65	-5.934799339784201e-06	1.3706210700056789e-17	1.8270736494623254e-17	1.972773666836426e-17	
-0.25	0.75	-3.7436992396358e-06	1.397263177904321e-17	1.8920315389282e-17	1.9484026115693627e-17	
-0.25	0.85	-1.3071991363453e-06	1.5270237069382815e-17	2.254547322965542e-17	1.852999977272244e-17	
-0.25	0.95	1.4326031622e-06	1.568626399005263e-17	2.3683419388315788e-17	1.8294630746789473e-17	
-0.25	1.05	4.7802216238e-06	1.5299505690473683e-17	2.2094409671684205e-17	1.8597494309526308e-17	
-0.25	1.15	8.613599299999999e-06	1.5212684026315787e-17	2.467613194736842e-17	1.874676334210526e-17	
-0.25	1.25	1.2811593e-05	1.524097184210526e-17	2.569163526315788e-17	1.8831765000000002e-17	
-0.25	1.35	1.76793538e-05	1.527348784210526e-17	2.6046498e-17	1.8907143736842107e-17	
-0.15	-0.45	-2.28779431e-05	1.0862251815789474e-17	1.769928584210526e-17	1.992224818421052e-17	
-0.15	-0.35	-1.8929321e-05	1.129599447368421e-17	1.7332747894736843e-17	1.9933531842105258e-17	
-0.15	-0.25	-1.65450704966e-05	1.1899639342999998e-17	1.746808973505263e-17	1.994343960436842e-17	
-0.15	-0.15	-1.48347036186e-05	1.2555077995105262e-17	1.733702822031579e-17	1.9946079899631575e-17	
-0.15	-0.05	-1.3448300110825699e-05	1.3058078918203762e-17	1.7396710584645103e-17	1.9933868450217292e-17	
-0.15	0.05	-1.2198599941292201e-05	1.3344552647028364e-17	1.7404763126995894e-17	1.9901368405603217e-17	
-0.15	0.15	-1.1010599839776299e-05	1.3483184252690445e-17	1.745742096830331e-17	1.9862763115730606e-17	
-0.15	0.25	-9.8617997395791e-06	1.3544394805373921e-17	1.7537736705041626e-17	1.982126308936291e-17	
-0.15	0.35	-8.7345996393013e-06	1.3567236937025972e-17	1.76604734943691e-17	1.977681569455297e-17	
-0.15	0.45	-7.5846995388428005e-06	1.3571579068725578e-17	1.7827078704654106e-17	1.9728341983906e-17	
-0.15	0.55	-6.3146994380798995e-06	1.3573868568926342e-17	1.8043157598989423e-17	1.9669368273178918e-17	
-0.15	0.65	-4.8247993367945e-06	1.3600000174527761e-17	1.832060491410237e-17	1.9583420878103818e-17	
-0.15	0.75	-3.0811992345909997e-06	1.3770789675107631e-17	1.878213117610052e-17	1.9385868219629206e-17	
-0.15	0.85	-1.0867991307399999e-06	1.490376338664737e-17	2.1064394279336836e-17	1.8521736613352623e-17	
-0.15	0.95	1.2324009791448e-06	1.5474421310301262e-17	2.432228895834484e-17	1.819452605811979e-17	
-0.15	1.05	4.2710032897000005e-06	1.5159132444657893e-17	2.2551656163315787e-17	1.8516657029026313e-17	
-0.15	1.15	7.8758217779e-06	1.514842678365789e-17	2.4777856958999995e-17	1.867475742686842e-17	
-0.15	1.25	1.1893599600000001e-05	1.518815778947368e-17	2.5672000210526308e-17	1.8789368526315793e-17	
-0.15	1.35	1.65983935e-05	1.5233814078947365e-17	2.6039687631578946e-17	1.8875291184210527e-17	
-0.05	-0.45	-2.13271682e-05	1.052698205263158e-17	1.779082536842105e-17	1.9981044263157892e-17	
-0.05	-0.35	-1.67476283e-05	1.0796782026315787e-17	1.7425935947368418e-17	1.996829692105263e-17	
-0.05	-0.25	-1.39649948137e-05	1.1229343470078945e-17	1.7562155165105256e-17	1.9958814424657894e-17	
-0.05	-0.15	-1.20593042146e-05	1.183002520668421e-17	1.7396081165578947e-17	1.9943632688052634e-17	
-0.05	-0.05	-1.06372001217709e-05	1.2483552599533971e-17	1.742228953777416e-17	1.991676318993971e-17	
-0.05	0.05	-9.4519999394076e-06	1.2983947384366419e-17	1.7440842073372417e-17	1.9873605247212526e-17	
-0.05	0.15	-8.376899836273999e-06	1.3265763200980524e-17	1.7516868334881053e-17	1.9824026272703682e-17	
-0.05	0.25	-7.3646997337409e-06	1.3398736912173445e-17	1.7613815649337312e-17	1.9769868350984448e-17	
-0.05	0.35	-6.4019996296238e-06	1.3453973781677945e-17	1.7746368226117786e-17	1.9710684113058894e-17	
-0.05	0.45	-5.4771995228161e-06	1.3470815915048394e-17	1.7918999748850577e-17	1.964576303232002e-17	
-0.05	0.55	-4.5534994114877e-06	1.3469973839082183e-17	1.8141526006046152e-17	1.9572999845128336e-17	
-0.05	0.65	-3.5300992924050997e-06	1.3475737028314448e-17	1.841663120652899e-17	1.947926297168555e-17	
-0.05	0.75	-2.295299159697e-06	1.3563342326395525e-17	1.8792315347208945e-17	1.9312262936762373e-17	
-0.05	0.85	-8.212861025417e-07	1.4415898394067972e-17	1.9977413738179832e-17	1.860107529014255e-17	
-0.05	0.95	9.933833991999998e-07	1.5186890368210524e-17	2.4567798210947366e-17	1.816945173705263e-17	
-0.05	1.05	3.6757014857999998e-06	1.5005500390999998e-17	2.3145472902210525e-17	1.852813118794737e-17	
-0.05	1.15	7.0238041191000005e-06	1.5062053715552628e-17	2.4832129411000003e-17	1.8715077863394736e-17	
-0.05	1.25	1.08493232036e-05	1.513445347463158e-17	2.565940884021052e-17	1.8844204420105254e-17	
-0.05	1.35	1.54011021e-05	1.5195158447368418e-17	2.6032419947368423e-17	1.894349944736842e-17	
0.05	-0.45	-1.98647212e-05	1.0435520736842104e-17	1.8059616421052626e-17	2.011324242105263e-17	
0.05	-0.35	-1.46857728e-05	1.0439586105263157e-17	1.7491485684210524e-17	1.999899284210526e-17	
0.05	-0.25	-1.15639087224e-05	1.0714839809894737e-17	1.76982414328421e-17	1.9967818084842098e-17	
0.05	-0.15	-9.4628124525e-06	1.1142391459868421e-17	1.7503743396052624e-17	1.9932661171710522e-17	
0.05	-0.05	-7.9757002806024e-06	1.1737236768262522e-17	1.751371067400127e-17	1.9887263231737473e-17	
0.05	0.05	-6.8279999114256e-06	1.2386157918045894e-17	1.749702626917136e-17	1.9827710503006728e-17	
0.05	0.15	-5.8542997842774e-06	1.2880079004137525e-17	1.758581567593547e-17	1.9760657837967735e-17	
0.05	0.25	-4.9749996470766e-06	1.3152710619190367e-17	1.7711578761619263e-17	1.968644727554647e-17	
0.05	0.35	-4.1634994859924e-06	1.3275158030001999e-17	1.7863552361048626e-17	1.960365775947168e-17	
0.05	0.45	-3.414199285001e-06	1.3318921240789206e-17	1.8054604886842632e-17	1.9510420864473944e-17	
0.05	0.55	-2.7230990170018e-06	1.3323552890262683e-17	1.8286867903685157e-17	1.940381553078994e-17	
0.05	0.65	-2.0705986341000003e-06	1.331173720155263e-17	1.8575894017947365e-17	1.9277447008973683e-17	
0.05	0.75	-1.3699980495e-06	1.3331237355394736e-17	1.8930314762894733e-17	1.9096552118289464e-17	
0.05	0.85	-5.025036032e-07	1.3822446420210526e-17	1.948887031747368e-17	1.8546106211368414e-17	
0.05	0.95	7.030503014e-07	1.4809592184578944e-17	2.420468405189474e-17	1.8085723604894735e-17	
0.05	1.05	2.9720073155e-06	1.484126508302631e-17	2.408539088657895e-17	1.8521392811710525e-17	
0.05	1.15	6.0324123649e-06	1.496771378023684e-17	2.52861777026842e-17	1.8756391482921054e-17	
0.05	1.25	9.646023735300001e-06	1.5069900982973684e-17	2.5375961191947358e-17	1.8915046385447364e-17	
0.05	1.35	1.40383589004e-05	1.514769971063158e-17	2.5937968999789473e-17	1.9032747657789468e-17	
0.15	-0.45	-1.86147e-05	1.0827315789473682e-17	1.8220921052631578e-17	2.0489184210526316e-17	
0.15	-0.35	-1.253908e-05	1.0233189473684209e-17	1.7838278947368425e-17	1.9972915789473684e-17	
0.15	-0.25	-9.202281400000001e-06	1.0328978578947366e-17	1.7752253368421056e-17	1.988223194736842e-17	
0.15	-0.15	-7.0072246481e-06	1.0599151408394736e-17	1.7697118235842104e-17	1.9821138065289472e-17	
0.15	-0.05	-5.4968025796e-06	1.1016630900105261e-17	1.765850135768421e-17	1.9749000678842103e-17	
0.15	0.05	-4.3964994964263e-06	1.1600368553572026e-17	1.763823657706647e-17	1.966142092011218e-17	
0.15	0.15	-3.5295990134257e-06	1.2238500259624814e-17	1.7702446849171418e-17	1.956239447721729e-17	
0.15	0.25	-2.7983983629e-06	1.2717184641342103e-17	1.7841867559421047e-17	1.9449789042868415e-17	
0.15	0.35	-2.1616973591e-06	1.2968527010763156e-17	1.8043972294263152e-17	1.931910456818421e-17	
0.15	0.45	-1.6099957661e-06	1.3062527429973683e-17	1.8267997771631578e-17	1.916360414897368e-17	
0.15	0.55	-1.1445931857e-06	1.306613337218421e-17	1.8559154308263154e-17	1.8971945575184208e-17	
0.15	0.65	-7.672688154e-07	1.3011008206473682e-17	1.8908694113368416e-17	1.872417600405263e-17	
0.15	0.75	-4.7024838439999996e-07	1.2914487267263155e-17	1.9368341254947366e-17	1.8381854837999997e-17	
0.15	0.85	-1.840611599e-07	1.2948720747394736e-17	1.9893637452578945e-17	1.778306872628947e-17	
0.15	0.95	3.66580166e-07	1.424781057e-17	2.315961570210526e-17	1.7733847324736842e-17	
0.15	1.05	2.1297926561000002e-06	1.46376296463421e-17	2.408563544415789e-17	1.8401712458921052e-17	
0.15	1.15	4.870864591599999e-06	1.485064857673684e-17	2.5252360741263153e-17	1.8719746160105255e-17	
0.15	1.25	8.2525957208e-06	1.4989367294947368e-17	2.5348239094315794e-17	1.89236590208421e-17	
0.15	1.35	1.24730374709e-05	1.508874670286842e-17	2.590250659426316e-17	1.9066963823447365e-17	
0.25	-0.45	-1.75922e-05	1.092357894736842e-17	1.8434289473684206e-17	2.0637868421052632e-17	
0.25	-0.35	-1.0322225e-05	1.0480598684210527e-17	1.8100671052631578e-17	2.0087006578947368e-17	
0.25	-0.25	-6.6843491999999994e-06	1.0037829157894737e-17	1.805789431578947e-17	1.96553287368421e-17	
0.25	-0.15	-4.5886780999999995e-06	1.0168426815789474e-17	1.7845620052631576e-17	1.9541099499999995e-17	
0.25	-0.05	-3.2075355457e-06	1.0420306435342103e-17	1.79020713398421e-17	1.942145672255263e-17	
0.25	0.05	-2.2592933677e-06	1.0812449113763155e-17	1.7883285982999997e-17	1.9275787728342106e-17	
0.25	0.15	-1.5808876462e-06	1.1361924303631578e-17	1.795473034010526e-17	1.9100628327947366e-17	
0.25	0.25	-1.0777794613e-06	1.1950084352289472e-17	1.8125804979631576e-17	1.8882468279289475e-17	
0.25	0.35	-7.02001725e-07	1.2344631124999998e-17	1.8419448276315792e-17	1.8597789927631577e-17	
0.25	0.45	-4.306002413e-07	1.2457210462815789e-17	1.883731591647368e-17	1.8214105326657894e-17	
0.25	0.55	-2.471053098e-07	1.2339498602684209e-17	1.9382950163052627e-17	1.7704001397315787e-17	
0.25	0.65	-1.3286566309999998e-07	1.2062666930763156e-17	2.007616613847368e-17	1.70821751745e-17	
0.25	0.75	-6.70993323e-08	1.1711079123078946e-17	2.085676280647368e-17	1.6434920876921052e-17	
0.25	0.85	-2.72710926e-08	1.1409507607210526e-17	2.161174794347368e-17	1.5871466076999997e-17	
0.25	0.95	9.58281863e-08	1.2851375838499997e-17	2.189827463878947e-17	1.659507152992105e-17	
0.25	1.05	1.1511933e-06	1.4324866657894737e-17	2.3511266684210528e-17	1.8087080710526315e-17	
0.25	1.15	3.5062784999999997e-06	1.4691678552631578e-17	2.5484958684210527e-17	1.8569005657894735e-17	
0.25	1.25	6.6413432e-06	1.4889879789473683e-17	2.5129161473684216e-17	1.8837962315789468e-17	
0.25	1.35	1.0680498e-05	1.5019183684210524e-17	2.57551852631579e-17	1.9018263684210526e-17	
0.35	-0.45	-1.5903900000000002e-05	1.0789999999999999e-17	1.866647368421052e-17	2.040936842105263e-17	
0.35	-0.35	-8.3955e-06	1.0726421052631578e-17	1.8291368421052633e-17	2.0122999999999994e-17	
0.35	-0.25	-4.0910931e-06	1.0020659710526316e-17	1.8554338473684205e-17	1.9355866605263155e-17	
0.35	-0.15	-2.2347907e-06	9.755818236842104e-18	1.8175942473684208e-17	1.8964997552631577e-17	
0.35	-0.05	-1.2729927551e-06	9.83529138023684e-18	1.830039092373684e-17	1.870931388292105e-17	
0.35	0.05	-7.119124607e-07	9.97128619455263e-18	1.8431927610894734e-17	1.8370240121236837e-17	
0.35	0.15	-3.88178646e-07	1.0180084566842104e-17	1.872027823473684e-17	1.791383648578947e-17	
0.35	0.25	-2.0587929579999999e-07	1.0469163343210527e-17	1.9167146997789467e-17	1.7330099814684207e-17	
0.35	0.35	-1.059166289e-07	1.075133772923684e-17	1.9768166646789473e-17	1.6674267533921053e-17	
0.35	0.45	-5.26482475e-08	1.0875513619078946e-17	2.0440578024999998e-17	1.6070407433552633e-17	
0.35	0.55	-2.49364e-08	1.0866174631578948e-17	2.1024861263157892e-17	1.5648193789473682e-17	
0.35	0.65	-1.05219e-08	1.0853599499999998e-17	2.1468300999999996e-17	1.5461742605263156e-17	
0.35	0.75	-2.4905e-09	1.089416039473684e-17	2.180175815789473e-17	1.5451286973684212e-17	
0.35	0.85	3.2929e-09	1.0961050763157895e-17	2.2117293210526312e-17	1.5495422921052626e-17	
0.35	0.95	2.03432e-08	1.1054563999999997e-17	2.2590608842105263e-17	1.5441646526315792e-17	
0.35	1.05	3.350134e-07	1.3572345631578944e-17	2.301515084210526e-17	1.7300338578947367e-17	
0.35	1.15	2.0006108e-06	1.4456423894736842e-17	2.43108627368421e-17	1.827420768421052e-17	
0.35	1.25	4.8479310000000004e-06	1.4755823947368418e-17	2.5695167894736837e-17	1.8667254999999998e-17	
0.35	1.35	8.7197901e-06	1.4933102657894734e-17	2.6060689421052628e-17	1.8911371026315783e-17	
0.45	-0.45	-1.3417799999999999e-05	1.052586842105263e-17	1.9017078947368414e-17	1.976173684210526e-17	
0.45	-0.35	-7.0519999999999996e-06	1.0547947368421052e-17	1.8685763157894736e-17	1.965697368421052e-17	
0.45	-0.25	-2.6899999999999997e-06	1.0147236842105262e-17	1.9089289473684208e-17	1.8791736842105262e-17	
0.45	-0.15	-7.089683000000001e-07	9.317376763157893e-18	1.9122799105263153e-17	1.80822285e-17	
0.45	-0.05	-2.4583860000000004e-07	9.087674052631578e-18	1.913775715789473e-17	1.754085226315789e-17	
0.45	0.05	-1.021882e-07	8.975134684210526e-18	1.9512730631578943e-17	1.6999286368421048e-17	
0.45	0.15	-4.31147e-08	8.368259289473684e-18	2.0476507736842103e-17	1.572134597368421e-17	
0.45	0.25	-1.6801e-08	8.583131315789473e-18	2.0750842631578946e-17	1.5452237105263156e-17	
0.45	0.35	-3.4173999999999994e-09	9.133232263157893e-18	2.0918798631578944e-17	1.541624142105263e-17	
0.45	0.45	5.3892e-09	9.850497157894735e-18	2.101066357894737e-17	1.5497318631578945e-17	
0.45	0.55	1.3594999999999999e-08	1.0418630263157894e-17	2.1205976315789472e-17	1.556263289473684e-17	
0.45	0.65	2.3838307700000002e-08	1.0716667975710526e-17	2.145295352226316e-17	1.5544174129552625e-17	
0.45	0.75	3.88081912e-08	1.0820475839789474e-17	2.1807574636210522e-17	1.5463287318105262e-17	
0.45	0.85	6.21810044e-08	1.0889442369578945e-17	2.2143009997684214e-17	1.5459531314631578e-17	
0.45	0.95	1.004297962e-07	1.1044507841105263e-17	2.244437905463158e-17	1.5548255316789472e-17	
0.45	1.05	1.986444e-07	1.1648564315789473e-17	2.2691713473684207e-17	1.580414621052631e-17	
0.45	1.15	9.341605000000001e-07	1.4058147499999998e-17	2.3056836578947366e-17	1.7816773552631578e-17	
0.45	1.25	3.2879835e-06	1.4661153552631577e-17	2.6044113947368418e-17	1.8552609605263154e-17	
0.45	1.35	7.0911866000000005e-06	1.496381226315789e-17	2.6176270210526318e-17	1.897358247368421e-17	
0.55	-0.45	-1.24673e-05	9.685552631578945e-18	2.0132236842105262e-17	1.807963157894737e-17	
0.55	-0.35	-7.6209414999999995e-06	9.183541710526317e-18	2.0407837631578945e-17	1.7233510921052627e-17	
0.55	-0.25	-3.7517117e-06	9.325523236842105e-18	2.0460164052631577e-17	1.749523992105263e-17	
0.55	-0.15	-9.725867e-07	8.135214026315789e-18	2.120472984210526e-17	1.5742128078947363e-17	
0.55	-0.05	-8.542370000000001e-08	7.234151657894736e-18	2.1344354578947363e-17	1.497976939473684e-17	
0.55	0.05	6.447699999999998e-09	7.274854657894736e-18	2.1158580157894736e-17	1.4986329552631575e-17	
0.55	0.15	2.3992700000000002e-08	7.840050710526315e-18	2.0794345947368423e-17	1.5534896657894733e-17	
0.55	0.25	4.16184e-08	8.176873263157893e-18	2.0800490315789474e-17	1.5578942526315788e-17	
0.55	0.35	6.55499613e-08	8.598671042447367e-18	2.0848368441421046e-17	1.5521565799657893e-17	
0.55	0.45	1.000453317e-07	9.164775087289472e-18	2.1031897193842103e-17	1.5431093333763157e-17	
0.55	0.55	1.502130616e-07	1.0050924489894737e-17	2.0977466809684207e-17	1.5498891299578942e-17	
0.55	0.65	2.230175859e-07	1.051771515418421e-17	2.131628021794737e-17	1.5533469056342103e-17	
