Using: /opt/synopsys/hspice/O-2018.09-SP2-2/hspice/linux64/hspice spice_gen.sp
 ****** HSPICE -- O-2018.09-SP2-2 linux64 (May  9 2019) ******                  
  Copyright (c) 1986 - 2020 by Synopsys, Inc. All Rights Reserved.              
  This software and the associated documentation are proprietary
  to Synopsys, Inc. This software may only be used in accordance
  with the terms and conditions of a written license agreement with
  Synopsys, Inc. All other use, reproduction, or distribution of
  this software is strictly prohibited.
  Input File: spice_gen.sp                                                      
  Command line options: /opt/synopsys/hspice/O-2018.09-SP2-2/hspice/linux64/hspice spice_gen.sp
  Start time: Fri Apr 24 03:35:48 2020
 lic:  
 lic: FLEXlm: SDK_11.7.3 
 lic: USER:   mitsushij            HOSTNAME: sahand 
 lic: HOSTID: "80c16e72eecb"       PID:      36550 
 lic: Using FLEXlm license file: 
 lic: 1720@ics-lic2.usc.edu 
 lic: Checkout 1 hspice 
 lic: License/Maintenance for hspice will expire on 30-jun-2021/2019.06 
 lic: 1(in_use)/50(total) FLOATING license(s) on SERVER 1720@ics-lic2.usc.edu 
 lic:   
  **warning** (/home/home2/visiting/mitsushij/workspace/CSM/characterization/../data/modelfiles/PTM_MG/lstp/7nm_LSTP.pm:13) Model nfet device geometries will not be checked against the limits set by lmin, lmax, nfinmin and nfinmax. To enable this check, add a period(.) to the model name(i.e. enable model selector).
1****** HSPICE -- O-2018.09-SP2-2 linux64 (May  9 2019) ******                  
 ******  
 * hao ge <haoge@usc.edu>

 ****** circuit name directory
 circuit number to circuit name directory
   number circuitname                     definition         multiplier
        0 main circuit
        1 x0.                             inv                1.00 
  **info** (spice_gen.sp:24) DC voltage reset to initial transient source value in source 0:vout. new dc=-0.3000D+00
  
      

Element variations(Local):   element              parameter
 **info** set option symb=1 internally to help for convergence.
 *****************************************************************
 ******  option summary
 ******
 runlvl  = 3         bypass  = 2.0000    

   *** data name = sweep_co , index =     1 ***

 ******
 * hao ge <haoge@usc.edu>

 ****** transient analysis tnom=  25.000 temp= 125.000 ******
x

 time         voltage    voltage    param      param     
             in         out        i_vin      i_mn       
    0.       -250.0000m -300.0000m    5.2830p -763.4600p 
    1.19048f -250.0000m -300.0000m    5.2830p -763.4600p 
    2.38095f -250.0000m -297.5000m    2.7837u    1.5216u 
    3.57143f -250.0000m -295.0000m    5.4931u    3.0002u 
    4.76190f -250.0000m -292.5000m    7.8782u    4.2887u 
    5.95238f -250.0000m -290.0000m   10.2274u    5.5562u 
    7.14286f -250.0000m -287.5000m   12.5765u    6.8237u 
    8.33333f -250.0000m -285.0000m   14.4420u    7.8136u 
    9.52381f -250.0000m -282.5000m   16.0487u    8.6551u 
   10.71429f -250.0000m -280.0000m   17.6554u    9.4966u 
   11.90476f -250.0000m -277.5000m   19.2621u   10.3380u 
   13.09524f -250.0000m -275.0000m   20.8688u   11.1795u 
   14.28571f -250.0000m -272.5000m   22.4755u   12.0210u 
   15.47619f -250.0000m -270.0000m   24.0822u   12.8624u 
   16.66667f -250.0000m -267.5000m   25.6889u   13.7039u 
   17.85714f -250.0000m -265.0000m   27.2956u   14.5454u 
   19.04762f -250.0000m -262.5000m   28.9023u   15.3868u 
   20.23810f -250.0000m -260.0000m   30.2819u   16.1028u 
   21.42857f -250.0000m -257.5000m   31.0012u   16.4541u 
   22.61905f -250.0000m -255.0000m   31.7206u   16.8053u 
   23.80952f -250.0000m -252.5000m   32.4400u   17.1566u 
   25.00000f -250.0000m -250.0000m   33.1593u   17.5078u 
   26.19048f -250.0000m -247.5000m   33.8787u   17.8590u 
   27.38095f -250.0000m -245.0000m   34.5980u   18.2103u 
   28.57143f -250.0000m -242.5000m   35.3174u   18.5615u 
   29.76190f -250.0000m -240.0000m   36.0368u   18.9128u 
   30.95238f -250.0000m -237.5000m   36.7561u   19.2640u 
   32.14286f -250.0000m -235.0000m   37.4755u   19.6152u 
   33.33333f -250.0000m -232.5000m   38.1948u   19.9665u 
   34.52381f -250.0000m -230.0000m   38.9142u   20.3177u 
   35.71429f -250.0000m -227.5000m   39.6336u   20.6690u 
   36.90476f -250.0000m -225.0000m   40.3529u   21.0202u 
   38.09524f -250.0000m -222.5000m   41.0723u   21.3715u 
   39.28571f -250.0000m -220.0000m   41.7916u   21.7227u 
   40.47619f -250.0000m -217.5000m   42.5110u   22.0739u 
   41.66667f -250.0000m -215.0000m   43.2304u   22.4252u 
   42.85714f -250.0000m -212.5000m   43.9497u   22.7764u 
   44.04762f -250.0000m -210.0000m   44.6691u   23.1277u 
   45.23810f -250.0000m -207.5000m   45.2868u   23.4261u 
   46.42857f -250.0000m -205.0000m   45.5124u   23.5207u 
   47.61905f -250.0000m -202.5000m   45.7380u   23.6154u 
   48.80952f -250.0000m -200.0000m   45.9636u   23.7101u 
   50.00000f -250.0000m -197.5000m   46.1892u   23.8047u 
   51.19048f -250.0000m -195.0000m   46.4148u   23.8994u 
   52.38095f -250.0000m -192.5000m   46.6404u   23.9940u 
   53.57143f -250.0000m -190.0000m   46.8660u   24.0887u 
   54.76190f -250.0000m -187.5000m   47.0916u   24.1834u 
   55.95238f -250.0000m -185.0000m   47.3172u   24.2780u 
   57.14286f -250.0000m -182.5000m   47.5428u   24.3727u 
   58.33333f -250.0000m -180.0000m   47.7684u   24.4674u 
   59.52381f -250.0000m -177.5000m   47.9940u   24.5620u 
   60.71429f -250.0000m -175.0000m   48.2196u   24.6567u 
   61.90476f -250.0000m -172.5000m   48.4452u   24.7513u 
   63.09524f -250.0000m -170.0000m   48.6708u   24.8460u 
   64.28571f -250.0000m -167.5000m   48.8964u   24.9407u 
   65.47619f -250.0000m -165.0000m   49.1220u   25.0353u 
   66.66667f -250.0000m -162.5000m   49.3476u   25.1300u 
   67.85714f -250.0000m -160.0000m   49.5732u   25.2247u 
   69.04762f -250.0000m -157.5000m   49.7988u   25.3193u 
   70.23810f -250.0000m -155.0000m   50.0008u   25.4032u 
   71.42857f -250.0000m -152.5000m   50.0748u   25.4287u 
   72.61905f -250.0000m -150.0000m   50.1488u   25.4542u 
   73.80952f -250.0000m -147.5000m   50.2228u   25.4797u 
   75.00000f -250.0000m -145.0000m   50.2968u   25.5052u 
   76.19048f -250.0000m -142.5000m   50.3708u   25.5308u 
   77.38095f -250.0000m -140.0000m   50.4448u   25.5563u 
   78.57143f -250.0000m -137.5000m   50.5188u   25.5818u 
   79.76190f -250.0000m -135.0000m   50.5928u   25.6073u 
   80.95238f -250.0000m -132.5000m   50.6668u   25.6328u 
   82.14286f -250.0000m -130.0000m   50.7408u   25.6583u 
   83.33333f -250.0000m -127.5000m   50.8148u   25.6838u 
   84.52381f -250.0000m -125.0000m   50.8888u   25.7093u 
   85.71429f -250.0000m -122.5000m   50.9628u   25.7348u 
   86.90476f -250.0000m -120.0000m   51.0368u   25.7604u 
   88.09524f -250.0000m -117.5000m   51.1108u   25.7859u 
   89.28571f -250.0000m -115.0000m   51.1848u   25.8114u 
   90.47619f -250.0000m -112.5000m   51.2588u   25.8369u 
   91.66667f -250.0000m -110.0000m   51.3327u   25.8624u 
   92.85714f -250.0000m -107.5000m   51.4067u   25.8879u 
   94.04762f -250.0000m -105.0000m   51.4807u   25.9134u 
   95.23810f -250.0000m -102.5000m   51.5497u   25.9369u 
   96.42857f -250.0000m -100.0000m   51.5759u   25.9438u 
   97.61905f -250.0000m  -97.5000m   51.6021u   25.9507u 
   98.80952f -250.0000m  -95.0000m   51.6283u   25.9576u 
  100.00000f -250.0000m  -92.5000m   51.6544u   25.9644u 
  101.19048f -250.0000m  -90.0000m   51.6806u   25.9713u 
  102.38095f -250.0000m  -87.5000m   51.7068u   25.9782u 
  103.57143f -250.0000m  -85.0000m   51.7330u   25.9851u 
  104.76190f -250.0000m  -82.5000m   51.7592u   25.9919u 
  105.95238f -250.0000m  -80.0000m   51.7854u   25.9988u 
  107.14286f -250.0000m  -77.5000m   51.8116u   26.0057u 
  108.33333f -250.0000m  -75.0000m   51.8378u   26.0126u 
  109.52381f -250.0000m  -72.5000m   51.8640u   26.0194u 
  110.71429f -250.0000m  -70.0000m   51.8902u   26.0263u 
  111.90476f -250.0000m  -67.5000m   51.9164u   26.0332u 
  113.09524f -250.0000m  -65.0000m   51.9426u   26.0401u 
  114.28571f -250.0000m  -62.5000m   51.9688u   26.0469u 
  115.47619f -250.0000m  -60.0000m   51.9950u   26.0538u 
  116.66667f -250.0000m  -57.5000m   52.0211u   26.0607u 
  117.85714f -250.0000m  -55.0000m   52.0473u   26.0676u 
  119.04762f -250.0000m  -52.5000m   52.0735u   26.0744u 
  120.23810f -250.0000m  -50.0000m   52.0989u   26.0810u 
  121.42857f -250.0000m  -47.5000m   52.1098u   26.0829u 
  122.61905f -250.0000m  -45.0000m   52.1207u   26.0847u 
  123.80952f -250.0000m  -42.5000m   52.1316u   26.0866u 
  125.00000f -250.0000m  -40.0000m   52.1425u   26.0884u 
  126.19048f -250.0000m  -37.5000m   52.1534u   26.0903u 
  127.38095f -250.0000m  -35.0000m   52.1643u   26.0922u 
  128.57143f -250.0000m  -32.5000m   52.1752u   26.0940u 
  129.76190f -250.0000m  -30.0000m   52.1861u   26.0959u 
  130.95238f -250.0000m  -27.5000m   52.1970u   26.0977u 
  132.14286f -250.0000m  -25.0000m   52.2079u   26.0996u 
  133.33333f -250.0000m  -22.5000m   52.2188u   26.1014u 
  134.52381f -250.0000m  -20.0000m   52.2297u   26.1033u 
  135.71429f -250.0000m  -17.5000m   52.2406u   26.1051u 
  136.90476f -250.0000m  -15.0000m   52.2515u   26.1070u 
  138.09524f -250.0000m  -12.5000m   52.2624u   26.1088u 
  139.28571f -250.0000m  -10.0000m   52.2733u   26.1107u 
  140.47619f -250.0000m   -7.5000m   52.2842u   26.1125u 
  141.66667f -250.0000m   -5.0000m   52.2951u   26.1144u 
  142.85714f -250.0000m   -2.5000m   52.3060u   26.1162u 
  144.04762f -250.0000m   36.4292a   52.3169u   26.1181u 
  145.23810f -250.0000m    2.5000m   52.3278u   26.1199u 
  146.42857f -250.0000m    5.0000m   52.3341u   26.1204u 
  147.61905f -250.0000m    7.5000m   52.3403u   26.1209u 
  148.80952f -250.0000m   10.0000m   52.3466u   26.1214u 
  150.00000f -250.0000m   12.5000m   52.3528u   26.1219u 
  151.19048f -250.0000m   15.0000m   52.3591u   26.1224u 
  152.38095f -250.0000m   17.5000m   52.3654u   26.1229u 
  153.57143f -250.0000m   20.0000m   52.3716u   26.1234u 
  154.76190f -250.0000m   22.5000m   52.3779u   26.1239u 
  155.95238f -250.0000m   25.0000m   52.3842u   26.1244u 
  157.14286f -250.0000m   27.5000m   52.3904u   26.1249u 
  158.33333f -250.0000m   30.0000m   52.3967u   26.1254u 
  159.52381f -250.0000m   32.5000m   52.4029u   26.1259u 
  160.71429f -250.0000m   35.0000m   52.4092u   26.1264u 
  161.90476f -250.0000m   37.5000m   52.4155u   26.1269u 
  163.09524f -250.0000m   40.0000m   52.4217u   26.1274u 
  164.28571f -250.0000m   42.5000m   52.4280u   26.1279u 
  165.47619f -250.0000m   45.0000m   52.4343u   26.1284u 
  166.66667f -250.0000m   47.5000m   52.4405u   26.1289u 
  167.85714f -250.0000m   50.0000m   52.4468u   26.1294u 
  169.04762f -250.0000m   52.5000m   52.4531u   26.1299u 
  170.23810f -250.0000m   55.0000m   52.4593u   26.1304u 
  171.42857f -250.0000m   57.5000m   52.4648u   26.1306u 
  172.61905f -250.0000m   60.0000m   52.4703u   26.1307u 
  173.80952f -250.0000m   62.5000m   52.4757u   26.1308u 
  175.00000f -250.0000m   65.0000m   52.4812u   26.1310u 
  176.19048f -250.0000m   67.5000m   52.4866u   26.1311u 
  177.38095f -250.0000m   70.0000m   52.4921u   26.1312u 
  178.57143f -250.0000m   72.5000m   52.4975u   26.1314u 
  179.76190f -250.0000m   75.0000m   52.5029u   26.1315u 
  180.95238f -250.0000m   77.5000m   52.5084u   26.1316u 
  182.14286f -250.0000m   80.0000m   52.5138u   26.1318u 
  183.33333f -250.0000m   82.5000m   52.5193u   26.1319u 
  184.52381f -250.0000m   85.0000m   52.5247u   26.1321u 
  185.71429f -250.0000m   87.5000m   52.5302u   26.1322u 
  186.90476f -250.0000m   90.0000m   52.5356u   26.1323u 
  188.09524f -250.0000m   92.5000m   52.5411u   26.1325u 
  189.28571f -250.0000m   95.0000m   52.5465u   26.1326u 
  190.47619f -250.0000m   97.5000m   52.5520u   26.1327u 
  191.66667f -250.0000m  100.0000m   52.5574u   26.1329u 
  192.85714f -250.0000m  102.5000m   52.5629u   26.1330u 
  194.04762f -250.0000m  105.0000m   52.5683u   26.1331u 
  195.23810f -250.0000m  107.5000m   52.5738u   26.1333u 
  196.42857f -250.0000m  110.0000m   52.5802u   26.1333u 
  197.61905f -250.0000m  112.5000m   52.5866u   26.1333u 
  198.80952f -250.0000m  115.0000m   52.5931u   26.1334u 
  200.00000f -250.0000m  117.5000m   52.5996u   26.1334u 
  201.19048f -250.0000m  120.0000m   52.6060u   26.1335u 
  202.38095f -250.0000m  122.5000m   52.6125u   26.1335u 
  203.57143f -250.0000m  125.0000m   52.6190u   26.1335u 
  204.76190f -250.0000m  127.5000m   52.6255u   26.1336u 
  205.95238f -250.0000m  130.0000m   52.6319u   26.1336u 
  207.14286f -250.0000m  132.5000m   52.6384u   26.1336u 
  208.33333f -250.0000m  135.0000m   52.6449u   26.1337u 
  209.52381f -250.0000m  137.5000m   52.6513u   26.1337u 
  210.71429f -250.0000m  140.0000m   52.6578u   26.1337u 
  211.90476f -250.0000m  142.5000m   52.6643u   26.1338u 
  213.09524f -250.0000m  145.0000m   52.6707u   26.1338u 
  214.28571f -250.0000m  147.5000m   52.6772u   26.1339u 
  215.47619f -250.0000m  150.0000m   52.6837u   26.1339u 
  216.66667f -250.0000m  152.5000m   52.6902u   26.1339u 
  217.85714f -250.0000m  155.0000m   52.6966u   26.1340u 
  219.04762f -250.0000m  157.5000m   52.7031u   26.1340u 
  220.23810f -250.0000m  160.0000m   52.7096u   26.1340u 
  221.42857f -250.0000m  162.5000m   52.7184u   26.1340u 
  222.61905f -250.0000m  165.0000m   52.7277u   26.1341u 
  223.80952f -250.0000m  167.5000m   52.7370u   26.1341u 
  225.00000f -250.0000m  170.0000m   52.7463u   26.1341u 
  226.19048f -250.0000m  172.5000m   52.7556u   26.1341u 
  227.38095f -250.0000m  175.0000m   52.7649u   26.1341u 
  228.57143f -250.0000m  177.5000m   52.7742u   26.1341u 
  229.76190f -250.0000m  180.0000m   52.7834u   26.1341u 
  230.95238f -250.0000m  182.5000m   52.7927u   26.1341u 
  232.14286f -250.0000m  185.0000m   52.8020u   26.1341u 
  233.33333f -250.0000m  187.5000m   52.8113u   26.1341u 
  234.52381f -250.0000m  190.0000m   52.8206u   26.1342u 
  235.71429f -250.0000m  192.5000m   52.8299u   26.1342u 
  236.90476f -250.0000m  195.0000m   52.8391u   26.1342u 
  238.09524f -250.0000m  197.5000m   52.8484u   26.1342u 
  239.28571f -250.0000m  200.0000m   52.8577u   26.1342u 
  240.47619f -250.0000m  202.5000m   52.8670u   26.1342u 
  241.66667f -250.0000m  205.0000m   52.8763u   26.1342u 
  242.85714f -250.0000m  207.5000m   52.8856u   26.1342u 
  244.04762f -250.0000m  210.0000m   52.8948u   26.1342u 
  245.23810f -250.0000m  212.5000m   52.9041u   26.1342u 
  246.42857f -250.0000m  215.0000m   52.9188u   26.1342u 
  247.61905f -250.0000m  217.5000m   52.9348u   26.1342u 
  248.80952f -250.0000m  220.0000m   52.9508u   26.1343u 
  250.00000f -250.0000m  222.5000m   52.9668u   26.1343u 
  251.19048f -250.0000m  225.0000m   52.9828u   26.1343u 
  252.38095f -250.0000m  227.5000m   52.9988u   26.1343u 
  253.57143f -250.0000m  230.0000m   53.0148u   26.1343u 
  254.76190f -250.0000m  232.5000m   53.0308u   26.1343u 
  255.95238f -250.0000m  235.0000m   53.0467u   26.1343u 
  257.14286f -250.0000m  237.5000m   53.0627u   26.1343u 
  258.33333f -250.0000m  240.0000m   53.0787u   26.1343u 
  259.52381f -250.0000m  242.5000m   53.0947u   26.1343u 
  260.71429f -250.0000m  245.0000m   53.1107u   26.1343u 
  261.90476f -250.0000m  247.5000m   53.1267u   26.1343u 
  263.09524f -250.0000m  250.0000m   53.1427u   26.1343u 
  264.28571f -250.0000m  252.5000m   53.1587u   26.1343u 
  265.47619f -250.0000m  255.0000m   53.1747u   26.1343u 
  266.66667f -250.0000m  257.5000m   53.1907u   26.1343u 
  267.85714f -250.0000m  260.0000m   53.2067u   26.1343u 
  269.04762f -250.0000m  262.5000m   53.2226u   26.1343u 
  270.23810f -250.0000m  265.0000m   53.2386u   26.1343u 
  271.42857f -250.0000m  267.5000m   53.2710u   26.1343u 
  272.61905f -250.0000m  270.0000m   53.3086u   26.1343u 
  273.80952f -250.0000m  272.5000m   53.3463u   26.1343u 
  275.00000f -250.0000m  275.0000m   53.3839u   26.1343u 
  276.19048f -250.0000m  277.5000m   53.4216u   26.1343u 
  277.38095f -250.0000m  280.0000m   53.4592u   26.1343u 
  278.57143f -250.0000m  282.5000m   53.4969u   26.1343u 
  279.76190f -250.0000m  285.0000m   53.5345u   26.1343u 
  280.95238f -250.0000m  287.5000m   53.5722u   26.1343u 
  282.14286f -250.0000m  290.0000m   53.6098u   26.1343u 
  283.33333f -250.0000m  292.5000m   53.6474u   26.1343u 
  284.52381f -250.0000m  295.0000m   53.6851u   26.1343u 
  285.71429f -250.0000m  297.5000m   53.7227u   26.1343u 
  286.90476f -250.0000m  300.0000m   53.7604u   26.1343u 
  288.09524f -250.0000m  302.5000m   53.7980u   26.1343u 
  289.28571f -250.0000m  305.0000m   53.8357u   26.1343u 
  290.47619f -250.0000m  307.5000m   53.8733u   26.1343u 
  291.66667f -250.0000m  310.0000m   53.9110u   26.1343u 
  292.85714f -250.0000m  312.5000m   53.9486u   26.1343u 
  294.04762f -250.0000m  315.0000m   53.9863u   26.1343u 
  295.23810f -250.0000m  317.5000m   54.0239u   26.1343u 
  296.42857f -250.0000m  320.0000m   54.1231u   26.1343u 
  297.61905f -250.0000m  322.5000m   54.2480u   26.1343u 
  298.80952f -250.0000m  325.0000m   54.3729u   26.1343u 
  300.00000f -250.0000m  327.5000m   54.4978u   26.1343u 
  301.19048f -250.0000m  330.0000m   54.6227u   26.1343u 
  302.38095f -250.0000m  332.5000m   54.7476u   26.1343u 
  303.57143f -250.0000m  335.0000m   54.8725u   26.1343u 
  304.76190f -250.0000m  337.5000m   54.9974u   26.1343u 
  305.95238f -250.0000m  340.0000m   55.1222u   26.1343u 
  307.14286f -250.0000m  342.5000m   55.2471u   26.1343u 
  308.33333f -250.0000m  345.0000m   55.3720u   26.1343u 
  309.52381f -250.0000m  347.5000m   55.4969u   26.1343u 
  310.71429f -250.0000m  350.0000m   55.6218u   26.1343u 
  311.90476f -250.0000m  352.5000m   55.7467u   26.1343u 
  313.09524f -250.0000m  355.0000m   55.8716u   26.1343u 
  314.28571f -250.0000m  357.5000m   55.9965u   26.1343u 
  315.47619f -250.0000m  360.0000m   56.1214u   26.1343u 
  316.66667f -250.0000m  362.5000m   56.2462u   26.1343u 
  317.85714f -250.0000m  365.0000m   56.3711u   26.1343u 
  319.04762f -250.0000m  367.5000m   56.4960u   26.1343u 
  320.23810f -250.0000m  370.0000m   56.6209u   26.1343u 
  321.42857f -250.0000m  372.5000m   56.7999u   26.1343u 
  322.61905f -250.0000m  375.0000m   57.0073u   26.1343u 
  323.80952f -250.0000m  377.5000m   57.2148u   26.1343u 
  325.00000f -250.0000m  380.0000m   57.4222u   26.1343u 
  326.19048f -250.0000m  382.5000m   57.6296u   26.1343u 
  327.38095f -250.0000m  385.0000m   57.8370u   26.1343u 
  328.57143f -250.0000m  387.5000m   58.0444u   26.1343u 
  329.76190f -250.0000m  390.0000m   58.2518u   26.1343u 
  330.95238f -250.0000m  392.5000m   58.4592u   26.1343u 
  332.14286f -250.0000m  395.0000m   58.6667u   26.1343u 
  333.33333f -250.0000m  397.5000m   58.8741u   26.1343u 
  334.52381f -250.0000m  400.0000m   59.0815u   26.1343u 
  335.71429f -250.0000m  402.5000m   59.2889u   26.1343u 
  336.90476f -250.0000m  405.0000m   59.4963u   26.1343u 
  338.09524f -250.0000m  407.5000m   59.7037u   26.1343u 
  339.28571f -250.0000m  410.0000m   59.9111u   26.1343u 
  340.47619f -250.0000m  412.5000m   60.1186u   26.1343u 
  341.66667f -250.0000m  415.0000m   60.3260u   26.1343u 
  342.85714f -250.0000m  417.5000m   60.5334u   26.1343u 
  344.04762f -250.0000m  420.0000m   60.7408u   26.1343u 
  345.23810f -250.0000m  422.5000m   60.9482u   26.1343u 
  346.42857f -250.0000m  425.0000m   61.1052u   26.1343u 
  347.61905f -250.0000m  427.5000m   61.2295u   26.1343u 
  348.80952f -250.0000m  430.0000m   61.3538u   26.1343u 
  350.00000f -250.0000m  432.5000m   61.4780u   26.1343u 
  351.19048f -250.0000m  435.0000m   61.6023u   26.1343u 
  352.38095f -250.0000m  437.5000m   61.7265u   26.1343u 
  353.57143f -250.0000m  440.0000m   61.8508u   26.1343u 
  354.76190f -250.0000m  442.5000m   61.9751u   26.1343u 
  355.95238f -250.0000m  445.0000m   62.0993u   26.1343u 
  357.14286f -250.0000m  447.5000m   62.2236u   26.1343u 
  358.33333f -250.0000m  450.0000m   62.3478u   26.1343u 
