Using: /opt/synopsys/hspice/O-2018.09-SP2-2/hspice/linux64/hspice FA.sp
 ****** HSPICE -- O-2018.09-SP2-2 linux64 (May  9 2019) ******                  
  Copyright (c) 1986 - 2020 by Synopsys, Inc. All Rights Reserved.              
  This software and the associated documentation are proprietary
  to Synopsys, Inc. This software may only be used in accordance
  with the terms and conditions of a written license agreement with
  Synopsys, Inc. All other use, reproduction, or distribution of
  this software is strictly prohibited.
  Input File: FA.sp                                                             
  Command line options: /opt/synopsys/hspice/O-2018.09-SP2-2/hspice/linux64/hspice FA.sp
  Start time: Tue Feb  4 14:34:25 2020
 lic:  
 lic: FLEXlm: SDK_11.7.3 
 lic: USER:   mitsushij            HOSTNAME: sahand 
 lic: HOSTID: "80c16e72eecb"       PID:      16854 
 lic: Using FLEXlm license file: 
 lic: 1720@ics-lic2.usc.edu 
 lic: Checkout 1 hspice 
 lic: License/Maintenance for hspice will expire on 30-jun-2021/2019.06 
 lic: 1(in_use)/50(total) FLOATING license(s) on SERVER 1720@ics-lic2.usc.edu 
 lic:   
  **warning** (./7nm_LSTP.pm:13) Model nfet device geometries will not be checked against the limits set by lmin, lmax, nfinmin and nfinmax. To enable this check, add a period(.) to the model name(i.e. enable model selector).
1****** HSPICE -- O-2018.09-SP2-2 linux64 (May  9 2019) ******                  
 ******  
 * m. saeed abrishami

 ****** circuit name directory
 circuit number to circuit name directory
   number circuitname                     definition         multiplier
        0 main circuit
        1 x0.                             nand2              1.00 
        2 x1.                             nand2              1.00 
        3 x2.                             nand2              1.00 
        4 x3.                             nand2              1.00 
        5 x4.                             nand2              1.00 
        6 x5.                             nand2              1.00 
        7 x6.                             nand2              1.00 
        8 x7.                             nand2              1.00 
        9 x8.                             nand2              1.00 
       10 xdumb1.                         nand2              1.00 
       11 xdumb2.                         nand2              1.00 
  **info** (FA.sp:47) DC voltage reset to initial transient source value in source 0:va. new dc=0.0000D+00
  
  **warning**  the following singular supplies have a terminal that is not connected to any other element
 supply                 node1                  node2
 vlo                 0:lo               defined in subckt 0            0:0                defined in subckt 0
  
      

Element variations(Local):   element              parameter
 **info** set option symb=1 internally to help for convergence.
 *****************************************************************
 ******  option summary
 ******
 runlvl  = 3         bypass  = 2.0000    
 ******  
 * m. saeed abrishami

 ****** operating point information tnom=  25.000 temp=  25.000 ******
 ****** operating point status is all       simulation time is     0.     
     node    =voltage       node    =voltage       node    =voltage

 + 0:1       = 629.4870n  0:2       = 629.4861n  0:3       = 629.4861n
 + 0:4       = 629.4852n  0:5       = 314.7427n  0:6       = 629.4856n
 + 0:7       = 314.7431n  0:a       =   0.       0:b       =   0.     
 + 0:cin     = 700.0000m  0:cout    = 629.4856n  0:hi      = 700.0000m
 + 0:lo      =   0.       0:netd1   = 314.7427n  0:netd2   = 314.7427n
 + 0:s       = 629.4856n  1:n1      = 315.1888n  2:n1      = 314.2477n
 + 3:n1      = 315.1885n  4:n1      = 314.2474n  5:n1      =  19.0897n
 + 6:n1      = 314.7180n  7:n1      =  19.0897n  8:n1      = 315.1881n
 + 9:n1      = 314.2477n 10:n1      =  19.0897n 11:n1      =  19.0897n


 **** voltage sources

 subckt                                                              
 element   0:va        0:vb        0:vcin      0:vhi       0:vlo     
  volts       0.          0.        700.0000m   700.0000m     0.     
  current    12.9121f    12.9121f   -23.0700p  -566.5372u     0.     
  power       0.          0.         16.1490p   396.5761u     0.     

     total voltage source power dissipation=  396.5761u       watts




 **** mosfets


 subckt    x0          x0          x0          x0          x1        
 element   1:mp2       1:mp1       1:mn1       1:mn2       2:mp2     
 model     0:pfet      0:pfet      0:nfet      0:nfet      0:pfet    
 region    Saturation  Saturation  Cutoff      Cutoff      Saturation
  id        -31.4744u   -31.4744u    15.8348a    15.9296a   -31.4743u
  ibs         0.          0.          0.          0.          0.     
  ibd         0.          0.          0.          0.          0.     
  vgs      -700.0000m  -700.0000m  -315.1888n     0.       -699.9994m
  vds      -699.9994m  -699.9994m   314.2982n   315.1888n  -699.9994m
  vbs         0.          0.       -315.1888n     0.          0.     
  vth      -544.1933m  -544.1933m   563.5226m   563.5226m  -544.1933m
  vdsat     -28.3222m   -28.3222m    14.7090m    14.7090m   -28.3222m
  vod      -155.8067m  -155.8067m  -563.5229m  -563.5226m  -155.8061m
  beta        8.5851m     8.5851m    13.9507m    13.9507m     8.5851m
  gam eff     0.          0.          0.          0.          0.     
  gm        205.7935u   205.7935u   517.3802a   519.0870a   205.7933u
  gds        16.7847u    16.7847u    50.4052p    50.4057p    16.7847u
  gmb         0.          0.          0.          0.          0.     
  cdtot      12.2674a    12.2674a    12.4449a    12.4449a    12.2674a
  cgtot      36.4633a    36.4633a    24.8898a    24.8898a    36.4633a
  cstot      18.4947a    18.4947a    12.4449a    12.4449a    18.4947a
  cbtot       0.          0.          0.          0.          0.     
  cgs        24.3771a    24.3771a    12.4449a    12.4449a    24.3771a
  cgd        12.0861a    12.0861a    12.4449a    12.4449a    12.0861a



 subckt    x1          x1          x1          x2          x2        
 element   2:mp1       2:mn1       2:mn2       3:mp2       3:mp1     
 model     0:pfet      0:nfet      0:nfet      0:pfet      0:pfet    
 region    Saturation  Cutoff      Cutoff      Saturation  Saturation
  id        -31.4744u    15.9296a    15.7874a   -31.4744u   -31.4743u
  ibs         0.          0.          0.          0.          0.     
  ibd         0.          0.          0.          0.          0.     
  vgs      -700.0000m  -314.2477n   629.4870n  -700.0000m  -699.9994m
  vds      -699.9994m   315.2383n   314.2477n  -699.9994m  -699.9994m
  vbs         0.       -314.2477n     0.          0.          0.     
  vth      -544.1933m   563.5226m   563.5226m  -544.1933m  -544.1933m
  vdsat     -28.3222m    14.7090m    14.7090m   -28.3222m   -28.3222m
  vod      -155.8067m  -563.5229m  -563.5220m  -155.8067m  -155.8061m
  beta        8.5851m    13.9507m    13.9507m     8.5851m     8.5851m
  gam eff     0.          0.          0.          0.          0.     
  gm        205.7935u   519.2766a   517.4276a   205.7935u   205.7933u
  gds        16.7847u    50.4052p    50.4067p    16.7847u    16.7847u
  gmb         0.          0.          0.          0.          0.     
  cdtot      12.2674a    12.4449a    12.4449a    12.2674a    12.2674a
  cgtot      36.4633a    24.8898a    24.8898a    36.4633a    36.4633a
  cstot      18.4947a    12.4449a    12.4449a    18.4947a    18.4947a
  cbtot       0.          0.          0.          0.          0.     
  cgs        24.3771a    12.4449a    12.4449a    24.3771a    24.3771a
  cgd        12.0861a    12.4449a    12.4449a    12.0861a    12.0861a



 subckt    x2          x2          x3          x3          x3        
 element   3:mn1       3:mn2       4:mp2       4:mp1       4:mn1     
 model     0:nfet      0:nfet      0:pfet      0:pfet      0:nfet    
 region    Cutoff      Cutoff      Saturation  Saturation  Cutoff    
  id         15.7874a    15.9296a   -31.4743u   -31.4743u    15.8822a
  ibs         0.          0.          0.          0.          0.     
  ibd         0.          0.          0.          0.          0.     
  vgs       314.2985n     0.       -699.9994m  -699.9994m   315.2386n
  vds       314.2976n   315.1885n  -699.9994m  -699.9994m   315.2377n
  vbs      -315.1885n     0.          0.          0.       -314.2474n
  vth       563.5226m   563.5226m  -544.1933m  -544.1933m   563.5226m
  vdsat      14.7090m    14.7090m   -28.3222m   -28.3222m    14.7090m
  vod      -563.5223m  -563.5226m  -155.8061m  -155.8061m  -563.5223m
  beta       13.9507m    13.9507m     8.5851m     8.5851m    13.9507m
  gam eff     0.          0.          0.          0.          0.     
  gm        517.6173a   519.1818a   205.7933u   205.7933u   519.0870a
  gds        50.4062p    50.4057p    16.7847u    16.7847u    50.4062p
  gmb         0.          0.          0.          0.          0.     
  cdtot      12.4449a    12.4449a    12.2674a    12.2674a    12.4449a
  cgtot      24.8898a    24.8898a    36.4633a    36.4633a    24.8898a
  cstot      12.4449a    12.4449a    18.4947a    18.4947a    12.4449a
  cbtot       0.          0.          0.          0.          0.     
  cgs        12.4449a    12.4449a    24.3771a    24.3771a    12.4449a
  cgd        12.4449a    12.4449a    12.0861a    12.0861a    12.4449a



 subckt    x3          x4          x4          x4          x4        
 element   4:mn2       5:mp2       5:mp1       5:mn1       5:mn2     
 model     0:nfet      0:pfet      0:pfet      0:nfet      0:nfet    
 region    Cutoff      Cutoff      Saturation  Cutoff      Linear    
  id         15.8822a    -3.7618p   -31.4743u    14.9340a     5.7675p
  ibs         0.          0.          0.          0.          0.     
  ibd         0.          0.          0.          0.          0.     
  vgs       629.4861n     0.       -699.9994m   610.3954n   700.0000m
  vds       314.2474n  -699.9997m  -699.9997m   295.6529n    19.0897n
  vbs         0.          0.          0.        -19.0897n     0.     
  vth       563.5226m  -540.7451m  -544.1933m   563.5226m   563.5226m
  vdsat      14.7090m   -19.0834m   -28.3222m    14.7090m    20.8763m
  vod      -563.5220m   540.7451m  -155.8061m  -563.5220m   136.4774m
  beta       13.9507m     8.5851m     8.5851m    13.9507m    13.9507m
  gam eff     0.          0.          0.          0.          0.     
  gm        517.5225a   119.6779p   205.7933u   486.7537a    27.7929p
  gds        50.4067p     9.9696p    16.7847u    50.4067p     1.6990m
  gmb         0.          0.          0.          0.          0.     
  cdtot      12.4449a    12.4449a    12.2674a    12.4449a    16.9858a
  cgtot      24.8898a    24.8898a    36.4633a    24.8898a    38.5125a
  cstot      12.4449a    12.4449a    18.4947a    12.4449a    16.9858a
  cbtot       0.          0.          0.          0.          0.     
  cgs        12.4449a    12.4449a    24.3771a    12.4449a    19.2562a
  cgd        12.4449a    12.4449a    12.0861a    12.4449a    19.2562a



 subckt    x5          x5          x5          x5          x6        
 element   6:mp2       6:mp1       6:mn1       6:mn2       7:mp2     
 model     0:pfet      0:pfet      0:nfet      0:nfet      0:pfet    
 region    Saturation  Saturation  Cutoff      Cutoff      Cutoff    
  id        -31.4743u   -31.4743u    15.8822a    15.8348a    -3.7618p
  ibs         0.          0.          0.          0.          0.     
  ibd         0.          0.          0.          0.          0.     
  vgs      -699.9997m  -699.9994m   314.7672n   314.7427n     0.     
  vds      -699.9994m  -699.9994m   314.7677n   314.7180n  -699.9997m
  vbs         0.          0.       -314.7180n     0.          0.     
  vth      -544.1933m  -544.1933m   563.5226m   563.5226m  -540.7451m
  vdsat     -28.3222m   -28.3222m    14.7090m    14.7090m   -19.0834m
  vod      -155.8064m  -155.8061m  -563.5223m  -563.5223m   540.7451m
  beta        8.5851m     8.5851m    13.9507m    13.9507m     8.5851m
  gam eff     0.          0.          0.          0.          0.     
  gm        205.7934u   205.7933u   518.1388a   518.6129a   119.6779p
  gds        16.7847u    16.7847u    50.4062p    50.4062p     9.9696p
  gmb         0.          0.          0.          0.          0.     
  cdtot      12.2674a    12.2674a    12.4449a    12.4449a    12.4449a
  cgtot      36.4633a    36.4633a    24.8898a    24.8898a    24.8898a
  cstot      18.4947a    18.4947a    12.4449a    12.4449a    12.4449a
  cbtot       0.          0.          0.          0.          0.     
  cgs        24.3771a    24.3771a    12.4449a    12.4449a    12.4449a
  cgd        12.0861a    12.0861a    12.4449a    12.4449a    12.4449a



 subckt    x6          x6          x6          x7          x7        
 element   7:mp1       7:mn1       7:mn2       8:mp2       8:mp1     
 model     0:pfet      0:nfet      0:nfet      0:pfet      0:pfet    
 region    Saturation  Cutoff      Linear      Saturation  Saturation
  id        -31.4743u    14.9340a     5.7675p   -31.4743u   -31.4743u
  ibs         0.          0.          0.          0.          0.     
  ibd         0.          0.          0.          0.          0.     
  vgs      -699.9997m   295.6529n   700.0000m  -699.9994m  -699.9997m
  vds      -699.9997m   295.6534n    19.0897n  -699.9994m  -699.9994m
  vbs         0.        -19.0897n     0.          0.          0.     
  vth      -544.1933m   563.5226m   563.5226m  -544.1933m  -544.1933m
  vdsat     -28.3222m    14.7090m    20.8763m   -28.3222m   -28.3222m
  vod      -155.8064m  -563.5223m   136.4774m  -155.8061m  -155.8064m
  beta        8.5851m    13.9507m    13.9507m     8.5851m     8.5851m
  gam eff     0.          0.          0.          0.          0.     
  gm        205.7934u   486.8485a    27.7929p   205.7933u   205.7934u
  gds        16.7847u    50.4062p     1.6990m    16.7847u    16.7847u
  gmb         0.          0.          0.          0.          0.     
  cdtot      12.2674a    12.4449a    16.9858a    12.2674a    12.2674a
  cgtot      36.4633a    24.8898a    38.5125a    36.4633a    36.4633a
  cstot      18.4947a    12.4449a    16.9858a    18.4947a    18.4947a
  cbtot       0.          0.          0.          0.          0.     
  cgs        24.3771a    12.4449a    19.2562a    24.3771a    24.3771a
  cgd        12.0861a    12.4449a    19.2562a    12.0861a    12.0861a



 subckt    x7          x7          x8          x8          x8        
 element   8:mn1       8:mn2       9:mp2       9:mp1       9:mn1     
 model     0:nfet      0:nfet      0:pfet      0:pfet      0:nfet    
 region    Cutoff      Cutoff      Saturation  Saturation  Cutoff    
  id         15.8822a    15.9296a   -31.4743u   -31.4743u    15.8822a
  ibs         0.          0.          0.          0.          0.     
  ibd         0.          0.          0.          0.          0.     
  vgs      -445.4053p   629.4870n  -699.9997m  -699.9994m   315.2379n
  vds       314.2976n   315.1881n  -699.9994m  -699.9994m   315.2379n
  vbs      -315.1881n     0.          0.          0.       -314.2477n
  vth       563.5226m   563.5226m  -544.1933m  -544.1933m   563.5226m
  vdsat      14.7090m    14.7090m   -28.3222m   -28.3222m    14.7090m
  vod      -563.5226m  -563.5220m  -155.8064m  -155.8061m  -563.5223m
  beta       13.9507m    13.9507m     8.5851m     8.5851m    13.9507m
  gam eff     0.          0.          0.          0.          0.     
  gm        517.7121a   518.9922a   205.7934u   205.7933u   518.9922a
  gds        50.4057p    50.4067p    16.7847u    16.7847u    50.4062p
  gmb         0.          0.          0.          0.          0.     
  cdtot      12.4449a    12.4449a    12.2674a    12.2674a    12.4449a
  cgtot      24.8898a    24.8898a    36.4633a    36.4633a    24.8898a
  cstot      12.4449a    12.4449a    18.4947a    18.4947a    12.4449a
  cbtot       0.          0.          0.          0.          0.     
  cgs        12.4449a    12.4449a    24.3771a    24.3771a    12.4449a
  cgd        12.4449a    12.4449a    12.0861a    12.0861a    12.4449a



 subckt    x8          xdumb1      xdumb1      xdumb1      xdumb1    
 element   9:mn2      10:mp2      10:mp1      10:mn1      10:mn2     
 model     0:nfet      0:pfet      0:pfet      0:nfet      0:nfet    
 region    Cutoff      Cutoff      Saturation  Cutoff      Linear    
  id         15.8348a    -3.7618p   -31.4743u    14.8392a     5.7675p
  ibs         0.          0.          0.          0.          0.     
  ibd         0.          0.          0.          0.          0.     
  vgs       314.7431n     0.       -699.9994m   610.3959n   700.0000m
  vds       314.2477n  -699.9997m  -699.9997m   295.6529n    19.0897n
  vbs         0.          0.          0.        -19.0897n     0.     
  vth       563.5226m  -540.7451m  -544.1933m   563.5226m   563.5226m
  vdsat      14.7090m   -19.0834m   -28.3222m    14.7090m    20.8763m
  vod      -563.5223m   540.7451m  -155.8061m  -563.5220m   136.4774m
  beta       13.9507m     8.5851m     8.5851m    13.9507m    13.9507m
  gam eff     0.          0.          0.          0.          0.     
  gm        517.3802a   119.6779p   205.7933u   486.7537a    27.7929p
  gds        50.4062p     9.9696p    16.7847u    50.4067p     1.6990m
  gmb         0.          0.          0.          0.          0.     
  cdtot      12.4449a    12.4449a    12.2674a    12.4449a    16.9858a
  cgtot      24.8898a    24.8898a    36.4633a    24.8898a    38.5125a
  cstot      12.4449a    12.4449a    18.4947a    12.4449a    16.9858a
  cbtot       0.          0.          0.          0.          0.     
  cgs        12.4449a    12.4449a    24.3771a    12.4449a    19.2562a
  cgd        12.4449a    12.4449a    12.0861a    12.4449a    19.2562a



 subckt    xdumb2      xdumb2      xdumb2      xdumb2    
 element  11:mp2      11:mp1      11:mn1      11:mn2     
 model     0:pfet      0:pfet      0:nfet      0:nfet    
 region    Cutoff      Saturation  Cutoff      Linear    
  id         -3.7618p   -31.4743u    14.8392a     5.7675p
  ibs         0.          0.          0.          0.     
  ibd         0.          0.          0.          0.     
  vgs         0.       -699.9994m   610.3959n   700.0000m
  vds      -699.9997m  -699.9997m   295.6529n    19.0897n
  vbs         0.          0.        -19.0897n     0.     
  vth      -540.7451m  -544.1933m   563.5226m   563.5226m
  vdsat     -19.0834m   -28.3222m    14.7090m    20.8763m
  vod       540.7451m  -155.8061m  -563.5220m   136.4774m
  beta        8.5851m     8.5851m    13.9507m    13.9507m
  gam eff     0.          0.          0.          0.     
  gm        119.6779p   205.7933u   486.7537a    27.7929p
  gds         9.9696p    16.7847u    50.4067p     1.6990m
  gmb         0.          0.          0.          0.     
  cdtot      12.4449a    12.2674a    12.4449a    16.9858a
  cgtot      24.8898a    36.4633a    24.8898a    38.5125a
  cstot      12.4449a    18.4947a    12.4449a    16.9858a
  cbtot       0.          0.          0.          0.     
  cgs        12.4449a    24.3771a    12.4449a    19.2562a
  cgd        12.4449a    12.0861a    12.4449a    19.2562a



 ******
 * m. saeed abrishami

 ****** transient analysis tnom=  25.000 temp=  25.000 ******
x

 time         voltage    voltage    voltage    voltage   
             s          cout       1          2          
    0.        629.4856n  629.4856n  629.4870n  629.4861n 
   10.00000f  807.5731u  804.6076u  577.2182u  609.4781u 
   20.00000f    1.6145m    1.6086m    1.1538m    1.2183m 
   30.00000f    2.4215m    2.4126m    1.7304m    1.8272m 
   40.00000f    3.2284m    3.2165m    2.3070m    2.4360m 
   50.00000f    4.0353m    4.0205m    2.8836m    3.0449m 
   60.00000f    4.8350m    4.8168m    3.4520m    3.6501m 
   70.00000f    5.6302m    5.6084m    4.0165m    4.2532m 
   80.00000f    6.4239m    6.3985m    4.5797m    4.8557m 
