Using: /opt/synopsys/hspice/O-2018.09-SP2-2/hspice/linux64/hspice c17.sp
 ****** HSPICE -- O-2018.09-SP2-2 linux64 (May  9 2019) ******                  
  Copyright (c) 1986 - 2020 by Synopsys, Inc. All Rights Reserved.              
  This software and the associated documentation are proprietary
  to Synopsys, Inc. This software may only be used in accordance
  with the terms and conditions of a written license agreement with
  Synopsys, Inc. All other use, reproduction, or distribution of
  this software is strictly prohibited.
  Input File: c17.sp                                                            
  Command line options: /opt/synopsys/hspice/O-2018.09-SP2-2/hspice/linux64/hspice c17.sp
  Start time: Thu May  7 16:52:57 2020
 lic:  
 lic: FLEXlm: SDK_11.7.3 
 lic: USER:   mitsushij            HOSTNAME: sahand 
 lic: HOSTID: "80c16e72eecb"       PID:      66194 
 lic: Using FLEXlm license file: 
 lic: 1720@ics-lic2.usc.edu 
 lic: Checkout 1 hspice 
 lic: License/Maintenance for hspice will expire on 30-jun-2021/2019.06 
 lic: 1(in_use)/50(total) FLOATING license(s) on SERVER 1720@ics-lic2.usc.edu 
 lic:   
  **warning** (/home/home2/visiting/mitsushij/workspace/CSM/simulation/../data/modelfiles/PTM_MG/lstp/7nm_LSTP.pm:13) Model nfet device geometries will not be checked against the limits set by lmin, lmax, nfinmin and nfinmax. To enable this check, add a period(.) to the model name(i.e. enable model selector).
1****** HSPICE -- O-2018.09-SP2-2 linux64 (May  9 2019) ******                  
 ******  
 * eda yan

 ****** circuit name directory
 circuit number to circuit name directory
   number circuitname                     definition         multiplier
        0 main circuit
        1 xnand2_1.                       nand2              1.00 
        2 xnand2_2.                       nand2              1.00 
        3 xnand2_3.                       nand2              1.00 
        4 xnand2_4.                       nand2              1.00 
        5 xnand2_5.                       nand2              1.00 
        6 xnand2_6.                       nand2              1.00 
  **info** (c17.sp:28) DC voltage reset to initial transient source value in source 0:vn7. new dc=0.0000D+00
  
  **warning**  the following singular supplies have a terminal that is not connected to any other element
 supply                 node1                  node2
 vlo                 0:lo               defined in subckt 0            0:0                defined in subckt 0
  
      

Element variations(Local):   element              parameter
 **info** set option symb=1 internally to help for convergence.
 *****************************************************************
 ******  option summary
 ******
 runlvl  = 3         bypass  = 2.0000    
 ******  
 * eda yan

 ****** operating point information tnom=  25.000 temp=  25.000 ******
 ****** operating point status is all       simulation time is     0.     
    node    =voltage      node    =voltage      node    =voltage

 +0:hi      = 700.0000m 0:lo      =   0.      0:n1      = 700.0000m
 +0:n10     = 126.2515n 0:n11     = 699.9999m 0:n16     = 699.9999m
 +0:n19     = 699.9999m 0:n2      =   0.      0:n22     = 700.0000m
 +0:n23     = 126.1730n 0:n3      = 700.0000m 0:n6      =   0.     
 +0:n7      =   0.      1:n1      =  82.2154n 2:n1      = 649.8246m
 +3:n1      =  31.6057n 4:n1      = 649.8246m 5:n1      =  31.6058n
 +6:n1      =  82.1762n


 **** voltage sources

 subckt                                                                    
 element  0:vhi      0:vlo      0:vn1      0:vn2      0:vn3      0:vn6     
  volts    700.0000m    0.       700.0000m    0.       700.0000m    0.     
  current  -75.5244p    0.       -11.5350p   11.8654f  -11.5350p   11.8654f
  power     52.8671p    0.         8.0745p    0.         8.0745p    0.     

 subckt             
 element  0:vn7     
  volts      0.     
  current   11.8654f
  power      0.     

     total voltage source power dissipation=   69.0161p       watts




 **** mosfets


 subckt   xnand2_1   xnand2_1   xnand2_1   xnand2_1   xnand2_2   xnand2_2  
 element  1:mp2      1:mp1      1:mn1      1:mn2      2:mp2      2:mp1     
 model    0:pfet     0:pfet     0:nfet     0:nfet     0:pfet     0:pfet    
 region   Cutoff     Cutoff     Linear     Linear     Linear     Cutoff    
  id        -3.7618p   -3.7618p   13.3044p   24.8394p  -14.9022p   -2.1298a
  ibs        0.         0.         0.         0.         0.         0.     
  ibd        0.         0.         0.         0.         0.         0.     
  vgs        0.         0.       699.9999m  700.0000m -700.0000m    0.     
  vds     -699.9999m -699.9999m   44.0361n   82.2154n  -63.0434n  -63.0434n
  vbs        0.         0.       -82.2154n    0.         0.         0.     
  vth     -540.7451m -540.7451m  563.5226m  563.5226m -561.0439m -561.0439m
  vdsat    -19.0834m  -19.0834m   20.8763m   20.8763m  -29.3817m  -19.0834m
  vod      540.7451m  540.7451m  136.4773m  136.4774m -138.9561m  561.0439m
  beta       8.5851m    8.5851m   13.9507m   13.9507m    8.5851m    8.5851m
  gam eff    0.         0.         0.         0.         0.         0.     
  gm       119.6779p  119.6779p   64.1124p  119.6979p   75.3758p   69.3200a
  gds        9.9696p    9.9696p    1.6990m    1.6990m    1.0931m   33.6356p
  gmb        0.         0.         0.         0.         0.         0.     
  cdtot     12.4449a   12.4449a   16.9858a   16.9858a   17.0008a   12.4449a
  cgtot     24.8898a   24.8898a   38.5125a   38.5125a   38.5574a   24.8898a
  cstot     12.4449a   12.4449a   16.9858a   16.9858a   17.0008a   12.4449a
  cbtot      0.         0.         0.         0.         0.         0.     
  cgs       12.4449a   12.4449a   19.2562a   19.2562a   19.2787a   12.4449a
  cgd       12.4449a   12.4449a   19.2562a   19.2562a   19.2787a   12.4449a



 subckt   xnand2_2   xnand2_2   xnand2_3   xnand2_3   xnand2_3   xnand2_3  
 element  2:mn1      2:mn2      3:mp2      3:mp1      3:mn1      3:mn2     
 model    0:nfet     0:nfet     0:pfet     0:pfet     0:nfet     0:nfet    
 region   Cutoff     Cutoff     Cutoff     Linear     Cutoff     Linear    
  id         3.3605p    3.3592p   -3.8219a  -26.8580p    3.7814p    9.5489p
  ibs        0.         0.         0.         0.         0.         0.     
  ibd        0.         0.         0.         0.         0.         0.     
  vgs       50.1754m    0.       -63.0434n -700.0000m  -31.6057n  699.9999m
  vds       50.1753m  649.8246m -113.6224n -113.6224n  699.9999m   31.6057n
  vbs     -649.8246m    0.         0.         0.       -31.6057n    0.     
  vth      563.2357m  550.0609m -561.0439m -561.0439m  548.8624m  563.5226m
  vdsat     14.7090m   14.7090m  -19.0834m  -29.3817m   14.7090m   20.8763m
  vod     -513.0603m -550.0609m  561.0438m -138.9561m -548.8625m  136.4773m
  beta      13.9507m   13.9507m    8.5851m    8.5851m   13.9507m   13.9507m
  gam eff    0.         0.         0.         0.         0.         0.     
  gm       109.7288p  107.0988p  124.8986a  135.8490p  120.3007p   46.0149p
  gds       11.3830p    7.9930p   33.6356p    1.0931m    8.8487p    1.6990m
  gmb        0.         0.         0.         0.         0.         0.     
  cdtot     12.4449a   12.4449a   12.4449a   17.0008a   12.4449a   16.9858a
  cgtot     24.8898a   24.8898a   24.8898a   38.5574a   24.8898a   38.5125a
  cstot     12.4449a   12.4449a   12.4449a   17.0008a   12.4449a   16.9858a
  cbtot      0.         0.         0.         0.         0.         0.     
  cgs       12.4449a   12.4449a   12.4449a   19.2787a   12.4449a   19.2562a
  cgd       12.4449a   12.4449a   12.4449a   19.2787a   12.4449a   19.2562a



 subckt   xnand2_4   xnand2_4   xnand2_4   xnand2_4   xnand2_5   xnand2_5  
 element  4:mp2      4:mp1      4:mn1      4:mn2      5:mp2      5:mp1     
 model    0:pfet     0:pfet     0:nfet     0:nfet     0:pfet     0:pfet    
 region   Linear     Cutoff     Cutoff     Cutoff     Cutoff     Linear    
  id       -14.9022p   -2.1006a    3.3605p    3.3592p -4.960e-19   -3.7881p
  ibs        0.         0.         0.         0.         0.         0.     
  ibd        0.         0.         0.         0.         0.         0.     
  vgs     -700.0000m  -63.0434n   50.1754m    0.      -113.6224n -699.9999m
  vds      -63.0433n  -63.0433n   50.1754m  649.8246m  -16.0253n  -16.0253n
  vbs        0.         0.      -649.8246m    0.         0.         0.     
  vth     -561.0439m -561.0439m  563.2357m  550.0609m -561.0439m -561.0439m
  vdsat    -29.3817m  -19.0834m   14.7090m   14.7090m  -19.0834m  -29.3817m
  vod     -138.9561m  561.0438m -513.0603m -550.0609m  561.0438m -138.9560m
  beta       8.5851m    8.5851m   13.9507m   13.9507m    8.5851m    8.5851m
  gam eff    0.         0.         0.         0.         0.         0.     
  gm        75.3757p   69.3784a  109.7288p  107.0988p   17.5634a   19.1602p
  gds        1.0931m   33.6356p   11.3830p    7.9930p   33.6357p    1.0931m
  gmb        0.         0.         0.         0.         0.         0.     
  cdtot     17.0008a   12.4449a   12.4449a   12.4449a   12.4449a   17.0008a
  cgtot     38.5574a   24.8898a   24.8898a   24.8898a   24.8898a   38.5574a
  cstot     17.0008a   12.4449a   12.4449a   12.4449a   12.4449a   17.0008a
  cbtot      0.         0.         0.         0.         0.         0.     
  cgs       19.2787a   12.4449a   12.4449a   12.4449a   12.4449a   19.2787a
  cgd       19.2787a   12.4449a   12.4449a   12.4449a   12.4449a   19.2787a



 subckt   xnand2_5   xnand2_5   xnand2_6   xnand2_6   xnand2_6   xnand2_6  
 element  5:mn1      5:mn2      6:mp2      6:mp1      6:mn1      6:mn2     
 model    0:nfet     0:nfet     0:pfet     0:pfet     0:nfet     0:nfet    
 region   Cutoff     Linear     Cutoff     Cutoff     Linear     Linear    
  id         3.7814p    9.5489p   -3.7619p   -3.7619p   13.2926p   24.8276p
  ibs        0.         0.         0.         0.         0.         0.     
  ibd        0.         0.         0.         0.         0.         0.     
  vgs       94.6457n  699.9999m  -63.0433n -113.6224n  699.9998m  699.9999m
  vds      700.0000m   31.6058n -699.9999m -699.9999m   43.9968n   82.1762n
  vbs      -31.6058n    0.         0.         0.       -82.1762n    0.     
  vth      548.8624m  563.5226m -540.7451m -540.7451m  563.5226m  563.5226m
  vdsat     14.7090m   20.8763m  -19.0834m  -19.0834m   20.8763m   20.8763m
  vod     -548.8623m  136.4773m  540.7451m  540.7450m  136.4772m  136.4773m
  beta      13.9507m   13.9507m    8.5851m    8.5851m   13.9507m   13.9507m
  gam eff    0.         0.         0.         0.         0.         0.     
  gm       120.3012p   46.0150p  119.6782p  119.6784p   64.0553p  119.6408p
  gds        8.8487p    1.6990m    9.9696p    9.9696p    1.6990m    1.6990m
  gmb        0.         0.         0.         0.         0.         0.     
  cdtot     12.4449a   16.9858a   12.4449a   12.4449a   16.9858a   16.9858a
  cgtot     24.8898a   38.5125a   24.8898a   24.8898a   38.5125a   38.5125a
  cstot     12.4449a   16.9858a   12.4449a   12.4449a   16.9858a   16.9858a
  cbtot      0.         0.         0.         0.         0.         0.     
  cgs       12.4449a   19.2562a   12.4449a   12.4449a   19.2562a   19.2562a
  cgd       12.4449a   19.2562a   12.4449a   12.4449a   19.2562a   19.2562a



 ******
 * eda yan

 ****** transient analysis tnom=  25.000 temp=  25.000 ******
x

 time         voltage    voltage   
             n22        n23        
    0.        700.0000m  126.1730n 
   10.00000f  700.0000m  126.1730n 
   20.00000f  700.0000m  126.1730n 
   30.00000f  700.0000m  126.1730n 
   40.00000f  700.0000m  126.1730n 
   50.00000f  700.0000m  126.1730n 
   60.00000f  700.0000m  126.1730n 
   70.00000f  700.0000m  126.1730n 
   80.00000f  700.0000m  126.1730n 
   90.00000f  700.0000m  126.1730n 
  100.00000f  700.0000m  126.1730n 
  110.00000f  700.0000m  126.1730n 
  120.00000f  700.0000m  126.1730n 
  130.00000f  700.0000m  126.1730n 
  140.00000f  700.0000m  126.1730n 
  150.00000f  700.0000m  126.1730n 
  160.00000f  700.0000m  126.1730n 
  170.00000f  700.0000m  126.1730n 
  180.00000f  700.0000m  126.1730n 
  190.00000f  700.0000m  126.1730n 
  200.00000f  700.0000m  126.1730n 
  210.00000f  700.0000m  126.1730n 
  220.00000f  700.0000m  126.1730n 
  230.00000f  700.0000m  126.1730n 
  240.00000f  700.0000m  126.1730n 
  250.00000f  700.0000m  126.1730n 
  260.00000f  700.0000m  126.1730n 
  270.00000f  700.0000m  126.1730n 
  280.00000f  700.0000m  126.1730n 
  290.00000f  700.0000m  126.1730n 
  300.00000f  700.0000m  126.1730n 
  310.00000f  700.0000m  126.1730n 
  320.00000f  700.0000m  126.1730n 
  330.00000f  700.0000m  126.1730n 
  340.00000f  700.0000m  126.1730n 
  350.00000f  700.0000m  126.1730n 
  360.00000f  700.0000m  126.1730n 
  370.00000f  700.0000m  126.1730n 
  380.00000f  700.0000m  126.1730n 
  390.00000f  700.0000m  126.1730n 
  400.00000f  700.0000m  126.1730n 
  410.00000f  700.0000m  126.1730n 
  420.00000f  700.0000m  126.1730n 
  430.00000f  700.0000m  126.1730n 
  440.00000f  700.0000m  126.1730n 
  450.00000f  700.0000m  126.1730n 
  460.00000f  700.0000m  126.1730n 
  470.00000f  700.0000m  126.1730n 
  480.00000f  700.0000m  126.1730n 
  490.00000f  700.0000m  126.1730n 
  500.00000f  700.0000m  126.1730n 
  510.00000f  700.0000m  126.1730n 
  520.00000f  700.0000m  126.1730n 
  530.00000f  700.0000m  126.1730n 
  540.00000f  700.0000m  126.1730n 
  550.00000f  700.0000m  126.1730n 
  560.00000f  700.0000m  126.1730n 
  570.00000f  700.0000m  126.1730n 
  580.00000f  700.0000m  126.1730n 
  590.00000f  700.0000m  126.1730n 
  600.00000f  700.0000m  126.1730n 
  610.00000f  700.0000m  126.1730n 
  620.00000f  700.0000m  126.1730n 
  630.00000f  700.0000m  126.1730n 
  640.00000f  700.0000m  126.1730n 
  650.00000f  700.0000m  126.1730n 
  660.00000f  700.0000m  126.1730n 
  670.00000f  700.0000m  126.1730n 
  680.00000f  700.0000m  126.1730n 
  690.00000f  700.0000m  126.1730n 
  700.00000f  700.0000m  126.1730n 
  710.00000f  700.0000m  126.1730n 
  720.00000f  700.0000m  126.1730n 
  730.00000f  700.0000m  126.1730n 
  740.00000f  700.0000m  126.1730n 
  750.00000f  700.0000m  126.1730n 
  760.00000f  700.0000m  126.1730n 
  770.00000f  700.0000m  126.1730n 
  780.00000f  700.0000m  126.1730n 
  790.00000f  700.0000m  126.1730n 
  800.00000f  700.0000m  126.1730n 
  810.00000f  700.0000m  126.1730n 
  820.00000f  700.0000m  126.1730n 
  830.00000f  700.0000m  126.1730n 
  840.00000f  700.0000m  126.1730n 
  850.00000f  700.0000m  126.1730n 
  860.00000f  700.0000m  126.1730n 
  870.00000f  700.0000m  126.1730n 
  880.00000f  700.0000m  126.1730n 
  890.00000f  700.0000m  126.1730n 
  900.00000f  700.0000m  126.1730n 
  910.00000f  700.0000m  126.1730n 
  920.00000f  700.0000m  126.1730n 
  930.00000f  700.0000m  126.1730n 
  940.00000f  700.0000m  126.1730n 
  950.00000f  700.0000m  126.1730n 
  960.00000f  700.0000m  126.1730n 
  970.00000f  700.0000m  126.1730n 
  980.00000f  700.0000m  126.1730n 
  990.00000f  700.0000m  126.1730n 
    1.00000p  700.0000m  126.1730n 
    1.01000p  700.0000m  126.1730n 
    1.02000p  700.0000m  126.1730n 
    1.03000p  700.0000m  126.1730n 
    1.04000p  700.0000m  126.1730n 
    1.05000p  700.0000m  126.1730n 
    1.06000p  700.0000m  126.1730n 
    1.07000p  700.0000m  126.1730n 
    1.08000p  700.0000m  126.1730n 
    1.09000p  700.0000m  126.1730n 
    1.10000p  700.0000m  126.1730n 
    1.11000p  700.0000m  126.1730n 
    1.12000p  700.0000m  126.1730n 
    1.13000p  700.0000m  126.1730n 
    1.14000p  700.0000m  126.1730n 
    1.15000p  700.0000m  126.1730n 
    1.16000p  700.0000m  126.1730n 
    1.17000p  700.0000m  126.1730n 
    1.18000p  700.0000m  126.1730n 
    1.19000p  700.0000m  126.1730n 
    1.20000p  700.0000m  126.1730n 
    1.21000p  700.0000m  126.1730n 
    1.22000p  700.0000m  126.1730n 
    1.23000p  700.0000m  126.1730n 
    1.24000p  700.0000m  126.1730n 
    1.25000p  700.0000m  126.1730n 
    1.26000p  700.0000m  126.1730n 
    1.27000p  700.0000m  126.1730n 
    1.28000p  700.0000m  126.1730n 
    1.29000p  700.0000m  126.1730n 
    1.30000p  700.0000m  126.1730n 
    1.31000p  700.0000m  126.1730n 
    1.32000p  700.0000m  126.1730n 
    1.33000p  700.0000m  126.1730n 
    1.34000p  700.0000m  126.1730n 
    1.35000p  700.0000m  126.1730n 
    1.36000p  700.0000m  126.1730n 
    1.37000p  700.0000m  126.1730n 
    1.38000p  700.0000m  126.1730n 
    1.39000p  700.0000m  126.1730n 
    1.40000p  700.0000m  126.1730n 
    1.41000p  700.0000m  126.1730n 
    1.42000p  700.0000m  126.1730n 
    1.43000p  700.0000m  126.1730n 
    1.44000p  700.0000m  126.1730n 
    1.45000p  700.0000m  126.1730n 
    1.46000p  700.0000m  126.1730n 
    1.47000p  700.0000m  126.1730n 
    1.48000p  700.0000m  126.1730n 
    1.49000p  700.0000m  126.1730n 
    1.50000p  700.0000m  126.1730n 
    1.51000p  700.0000m  126.1730n 
    1.52000p  700.0000m  126.1730n 
    1.53000p  700.0000m  126.1730n 
    1.54000p  700.0000m  126.1730n 
    1.55000p  700.0000m  126.1730n 
    1.56000p  700.0000m  126.1730n 
    1.57000p  700.0000m  126.1730n 
    1.58000p  700.0000m  126.1730n 
    1.59000p  700.0000m  126.1730n 
    1.60000p  700.0000m  126.1730n 
    1.61000p  700.0000m  126.1730n 
    1.62000p  700.0000m  126.1730n 
    1.63000p  700.0000m  126.1730n 
    1.64000p  700.0000m  126.1730n 
    1.65000p  700.0000m  126.1730n 
    1.66000p  700.0000m  126.1730n 
    1.67000p  700.0000m  126.1730n 
    1.68000p  700.0000m  126.1730n 
    1.69000p  700.0000m  126.1730n 
    1.70000p  700.0000m  126.1730n 
    1.71000p  700.0000m  126.1730n 
    1.72000p  700.0000m  126.1730n 
    1.73000p  700.0000m  126.1730n 
    1.74000p  700.0000m  126.1730n 
    1.75000p  700.0000m  126.1730n 
    1.76000p  700.0000m  126.1730n 
    1.77000p  700.0000m  126.1730n 
    1.78000p  700.0000m  126.1730n 
    1.79000p  700.0000m  126.1730n 
    1.80000p  700.0000m  126.1730n 
    1.81000p  700.0000m  126.1730n 
    1.82000p  700.0000m  126.1730n 
    1.83000p  700.0000m  126.1730n 
    1.84000p  700.0000m  126.1730n 
    1.85000p  700.0000m  126.1730n 
    1.86000p  700.0000m  126.1730n 
    1.87000p  700.0000m  126.1730n 
    1.88000p  700.0000m  126.1730n 
    1.89000p  700.0000m  126.1730n 
    1.90000p  700.0000m  126.1730n 
    1.91000p  700.0000m  126.1730n 
    1.92000p  700.0000m  126.1730n 
    1.93000p  700.0000m  126.1730n 
    1.94000p  700.0000m  126.1730n 
    1.95000p  700.0000m  126.1730n 
    1.96000p  700.0000m  126.1730n 
    1.97000p  700.0000m  126.1730n 
    1.98000p  700.0000m  126.1730n 
    1.99000p  700.0000m  126.1730n 
    2.00000p  700.0000m  126.1730n 
    2.01000p  700.0000m  126.1730n 
    2.02000p  700.0000m  126.1730n 
    2.03000p  700.0000m  126.1730n 
    2.04000p  700.0000m  126.1730n 
    2.05000p  700.0000m  126.1730n 
    2.06000p  700.0000m  126.1730n 
    2.07000p  700.0000m  126.1730n 
    2.08000p  700.0000m  126.1730n 
    2.09000p  700.0000m  126.1730n 
    2.10000p  700.0000m  126.1730n 
    2.11000p  700.0000m  126.1730n 
    2.12000p  700.0000m  126.1730n 
    2.13000p  700.0000m  126.1730n 
    2.14000p  700.0000m  126.1730n 
    2.15000p  700.0000m  126.1730n 
    2.16000p  700.0000m  126.1730n 
    2.17000p  700.0000m  126.1730n 
    2.18000p  700.0000m  126.1730n 
    2.19000p  700.0000m  126.1730n 
    2.20000p  700.0000m  126.1730n 
    2.21000p  700.0000m  126.1730n 
    2.22000p  700.0000m  126.1730n 
    2.23000p  700.0000m  126.1730n 
    2.24000p  700.0000m  126.1730n 
    2.25000p  700.0000m  126.1730n 
    2.26000p  700.0000m  126.1730n 
    2.27000p  700.0000m  126.1730n 
    2.28000p  700.0000m  126.1730n 
    2.29000p  700.0000m  126.1730n 
    2.30000p  700.0000m  126.1730n 
    2.31000p  700.0000m  126.1730n 
    2.32000p  700.0000m  126.1730n 
    2.33000p  700.0000m  126.1730n 
    2.34000p  700.0000m  126.1730n 
