Using: /opt/synopsys/hspice/O-2018.09-SP2-2/hspice/linux64/hspice c17.sp
 ****** HSPICE -- O-2018.09-SP2-2 linux64 (May  9 2019) ******                  
  Copyright (c) 1986 - 2020 by Synopsys, Inc. All Rights Reserved.              
  This software and the associated documentation are proprietary
  to Synopsys, Inc. This software may only be used in accordance
  with the terms and conditions of a written license agreement with
  Synopsys, Inc. All other use, reproduction, or distribution of
  this software is strictly prohibited.
  Input File: c17.sp                                                            
  Command line options: /opt/synopsys/hspice/O-2018.09-SP2-2/hspice/linux64/hspice c17.sp
  Start time: Tue May 12 02:03:16 2020
 lic:  
 lic: FLEXlm: SDK_11.7.3 
 lic: USER:   mitsushij            HOSTNAME: sahand 
 lic: HOSTID: "80c16e72eecb"       PID:      76315 
 lic: Using FLEXlm license file: 
 lic: 1720@ics-lic2.usc.edu 
 lic: Checkout 1 hspice 
 lic: License/Maintenance for hspice will expire on 30-jun-2021/2019.06 
 lic: 1(in_use)/50(total) FLOATING license(s) on SERVER 1720@ics-lic2.usc.edu 
 lic:   
1****** HSPICE -- O-2018.09-SP2-2 linux64 (May  9 2019) ******                  
 ******  
 * eda yan

 ****** circuit name directory
 circuit number to circuit name directory
   number circuitname                     definition         multiplier
        0 main circuit
        1 xnand2_1.                       nand2              1.00 
        2 xnand2_2.                       nand2              1.00 
        3 xnand2_3.                       nand2              1.00 
        4 xnand2_4.                       nand2              1.00 
        5 xnand2_5.                       nand2              1.00 
        6 xnand2_6.                       nand2              1.00 
  **info** (c17.sp:24) DC voltage reset to initial transient source value in source 0:vn1. new dc=0.0000D+00
  **warning** (nmos:mn1 (./gate_inventory_gen.sp:18)) Warning:  Acde = 0.231197 may be too small in BSIM4 model with w=3.2e-08 l=1.6e-08.
  

  **warning** the following singular supplies were terminated to 1 meg resistor 
          supply       node1            node2
(c17.sp:10)vlo                     0:lo               defined in subckt 0                     0:0                defined in subckt 0               
      

Element variations(Local):   element              parameter
 **info** set option symb=1 internally to help for convergence.
 *****************************************************************
 ******  option summary
 ******
 runlvl  = 3         bypass  = 2.0000    
 **info** dc convergence successful at Newton-Raphson method 
 ******  
 * eda yan

 ****** operating point information tnom=  25.000 temp=  25.000 ******
 ****** operating point status is all       simulation time is     0.     
    node    =voltage      node    =voltage      node    =voltage

 +0:hi      = 900.0000m 0:lo      =   0.      0:n1      =   0.     
 +0:n10     = 899.9938m 0:n11     = 899.9939m 0:n16     = 899.9799m
 +0:n19     = 899.9891m 0:n2      =   0.      0:n22     =   5.2101u
 +0:n23     =   5.2098u 0:n3      =   0.      0:n6      =   0.     
 +0:n7      =   0.      1:n1      =  52.9516m 2:n1      =  52.9516m
 +3:n1      =   1.2445u 4:n1      = 622.4075m 5:n1      =   3.8286u
 +6:n1      =   3.8283u


 **** voltage sources

 subckt                                                                    
 element  0:vhi      0:vlo      0:vn1      0:vn2      0:vn3      0:vn6     
  volts    900.0000m    0.         0.         0.         0.         0.     
  current -902.6514p    0.        41.8998p   41.9000p   83.7996p   41.8998p
  power    812.3863p    0.         0.         0.         0.         0.     

 subckt             
 element  0:vn7     
  volts      0.     
  current   41.8998p
  power      0.     

     total voltage source power dissipation=  812.3863p       watts




 **** mosfets


 subckt   xnand2_1   xnand2_1   xnand2_1   xnand2_1   xnand2_2   xnand2_2  
 element  1:mp2      1:mp1      1:mn1      1:mn2      2:mp2      2:mp1     
 model    0:pmos     0:pmos     0:nmos     0:nmos     0:pmos     0:pmos    
 region   Linear     Linear     Cutoff     Cutoff     Linear     Linear    
  id       -85.3043p  -85.3043p  127.0803f   12.4482f  -84.3225p  -84.3225p
  ibs     -1.177e-26 -1.177e-26  -52.9538f  5.783e-26 -1.177e-26 -1.177e-26
  ibd        8.5666a    8.5666a -909.9938f  -61.6783f    8.4680a    8.4680a
  vgs     -900.0000m -900.0000m  -52.9516m    0.      -900.0000m -900.0000m
  vds       -6.1667u   -6.1667u  847.0423m   52.9516m   -6.0957u   -6.0957u
  vbs        0.         0.       -52.9516m    0.         0.         0.     
  vth     -681.8334m -681.8334m  544.9000m  671.5852m -681.8334m -681.8334m
  vdsat   -223.2405m -223.2405m   43.2181m   43.7698m -223.2404m -223.2404m
  vod     -218.1666m -218.1666m -597.8516m -671.5852m -218.1666m -218.1666m
  beta      77.4017u   77.4017u  528.9543u  423.7186u   77.4017u   77.4017u
  gam eff  400.0000m  400.0000m  400.0000m  400.0000m  400.0000m  400.0000m
  gm       402.3646p  402.3646p    3.4571p  335.8388f  397.7339p  397.7339p
  gds       13.8331u   13.8331u  697.6665f  120.7312f   13.8331u   13.8331u
  gmb       91.2741p   91.2741p    1.0001p  105.2450f   90.2237p   90.2237p
  cdtot     33.2543a   33.2543a   17.5082a   22.8839a   33.2543a   33.2543a
  cgtot     28.4283a   28.4283a   15.1530a   18.2494a   28.4283a   28.4283a
  cstot     37.1828a   37.1828a   32.3045a   33.2133a   37.1828a   37.1828a
  cbtot     43.9374a   43.9374a   41.4635a   44.6516a   43.9374a   43.9374a
  cgs       17.0091a   17.0091a    7.1830a    7.6646a   17.0091a   17.0091a
  cgd       10.6808a   10.6808a    4.5682a    7.1829a   10.6808a   10.6808a



 subckt   xnand2_2   xnand2_2   xnand2_3   xnand2_3   xnand2_3   xnand2_3  
 element  2:mn1      2:mn2      3:mp2      3:mp1      3:mn1      3:mn2     
 model    0:nmos     0:nmos     0:pmos     0:pmos     0:nmos     0:nmos    
 region   Cutoff     Cutoff     Cutoff     Linear     Cutoff     Linear    
  id       127.0803f   12.4482f -3.751e-19 -278.2718p    1.0810p   63.9329p
  ibs      -52.9538f  5.783e-26  2.221e-28 -1.188e-26   -1.2447a  2.022e-26
  ibd     -909.9939f  -61.6783f   27.9434a   27.9434a -909.9799f   -1.7290a
  vgs      -52.9516m    0.        -6.0957u -900.0000m   -1.2445u  899.9939m
  vds      847.0423m   52.9516m  -20.1165u  -20.1165u  899.9786m    1.2445u
  vbs      -52.9516m    0.         0.         0.        -1.2445u    0.     
  vth      544.9000m  671.5852m -681.8296m -681.8296m  524.9596m  680.7513m
  vdsat     43.2181m   43.7698m  -46.7962m -223.2438m   43.0662m  196.1743m
  vod     -597.8516m -671.5852m  681.8235m -218.1704m -524.9608m  219.2426m
  beta     528.9543u  423.7186u   69.2338u   77.4020u  548.3096u  353.0839u
  gam eff  400.0000m  400.0000m  400.0000m  400.0000m  400.0000m  400.0000m
  gm         3.4571p  335.8388f   10.3987a    1.3126n   29.1416p  192.2466p
  gds      697.6666f  120.7312f   18.6445f   13.8328u    5.9843p   51.3703u
  gmb        1.0001p  105.2450f    3.1008a  297.7462p    8.4303p   53.3533p
  cdtot     17.5082a   22.8839a   23.6243a   33.2522a   17.5083a   36.1271a
  cgtot     15.1530a   18.2494a   18.2982a   28.4282a   15.6346a   30.4146a
  cstot     32.3045a   33.2133a   33.2054a   37.1839a   33.2133a   36.8387a
  cbtot     41.4635a   44.6516a   44.5018a   43.9372a   41.8907a   44.3134a
  cgs        7.1830a    7.6646a    7.6567a   17.0097a    7.6646a   17.7510a
  cgd        4.5682a    7.1829a    7.6564a   10.6801a    4.5682a   12.0534a



 subckt   xnand2_4   xnand2_4   xnand2_4   xnand2_4   xnand2_5   xnand2_5  
 element  4:mp2      4:mp1      4:mn1      4:mn2      5:mp2      5:mp1     
 model    0:pmos     0:pmos     0:nmos     0:nmos     0:pmos     0:pmos    
 region   Linear     Cutoff     Cutoff     Cutoff     Cutoff     Cutoff    
  id      -151.0368p -2.036e-19    1.5016p  246.8030f   -1.1823p   -1.1818p
  ibs     -1.188e-26  2.221e-28 -622.4100f  5.929e-25 -8.532e-25 -8.532e-25
  ibd       15.1674a   15.1674a -909.9891f -632.4075f  909.9948f  909.9948f
  vgs     -900.0000m   -6.0957u  277.5864m    0.       -20.1165u   -6.1667u
  vds      -10.9185u  -10.9185u  277.5816m  622.4075m -899.9948m -899.9948m
  vbs        0.         0.      -622.4075m    0.         0.         0.     
  vth     -681.8321m -681.8321m  744.4977m  573.0087m -436.4074m -436.4074m
  vdsat   -223.2416m  -46.7962m   44.1132m   43.3166m  -46.4773m  -46.4773m
  vod     -218.1679m  681.8260m -466.9112m -573.0087m  436.3873m  436.4012m
  beta      77.4018u   69.2336u  375.1399u  503.0351u   98.7210u   98.7210u
  gam eff  400.0000m  400.0000m  400.0000m  400.0000m  400.0000m  400.0000m
  gm       712.4138p    5.6442a   43.4967p    6.6561p   32.7275p   32.7149p
  gds       13.8330u   18.6459f    8.0937p    1.2688p   12.0541p   12.0495p
  gmb      161.6068p    1.6831a    8.6160p    1.9778p    8.4810p    8.4778p
  cdtot     33.2536a   23.6245a   20.6046a   18.4172a   17.5003a   17.5003a
  cgtot     28.4283a   18.2983a   19.1543a   15.8553a   15.2021a   15.2020a
  cstot     37.1832a   33.2054a   31.0248a   33.2133a   33.2055a   33.2054a
  cbtot     43.9373a   44.5019a   37.0157a   42.5790a   41.4739a   41.4740a
  cgs       17.0093a    7.6567a    9.2195a    7.6646a    7.6568a    7.6567a
  cgd       10.6806a    7.6565a    7.6646a    4.7888a    4.5602a    4.5602a



 subckt   xnand2_5   xnand2_5   xnand2_6   xnand2_6   xnand2_6   xnand2_6  
 element  5:mn1      5:mn2      6:mp2      6:mp1      6:mn1      6:mn2     
 model    0:nmos     0:nmos     0:pmos     0:pmos     0:nmos     0:nmos    
 region   Linear     Linear     Cutoff     Cutoff     Linear     Linear    
  id        70.9710p  196.6656p   -1.1820p   -1.1823p   70.9640p  196.6562p
  ibs       -3.8289a  2.021e-26 -8.532e-25 -8.532e-25   -3.8287a  2.022e-26
  ibd       -7.2379a   -5.3186a  909.9948f  909.9948f   -7.2374a   -5.3182a
  vgs      899.9900m  899.9799m  -10.9185u  -20.1165u  899.9761m  899.9891m
  vds        1.3816u    3.8286u -899.9948m -899.9948m    1.3815u    3.8283u
  vbs       -3.8286u    0.         0.         0.        -3.8283u    0.     
  vth      680.7521m  680.7508m -436.4074m -436.4074m  680.7521m  680.7508m
  vdsat    196.1713m  196.1652m  -46.4773m  -46.4773m  196.1620m  196.1714m
  vod      219.2380m  219.2290m  436.3965m  436.3873m  219.2240m  219.2382m
  beta     353.0847u  353.0878u   98.7210u   98.7210u  353.0885u  353.0853u
  gam eff  400.0000m  400.0000m  400.0000m  400.0000m  400.0000m  400.0000m
  gm       213.4167p  591.4319p   32.7192p   32.7275p  213.4152p  591.3675p
  gds       51.3695u   51.3677u   12.0510p   12.0541p   51.3673u   51.3691u
  gmb       59.2280p  164.1333p    8.4789p    8.4810p   59.2262p  164.1178p
  cdtot     36.1270a   36.1263a   17.5003a   17.5003a   36.1267a   36.1265a
  cgtot     30.4146a   30.4145a   15.2021a   15.2021a   30.4145a   30.4145a
  cstot     36.8387a   36.8391a   33.2055a   33.2055a   36.8388a   36.8390a
  cbtot     44.3133a   44.3134a   41.4740a   41.4739a   44.3133a   44.3134a
  cgs       17.7510a   17.7511a    7.6567a    7.6568a   17.7510a   17.7511a
  cgd       12.0534a   12.0532a    4.5602a    4.5602a   12.0533a   12.0532a



 ******
 * eda yan

 ****** transient analysis tnom=  25.000 temp=  25.000 ******
x

 time         voltage    voltage   
             n22        n23        
    0.          5.2101u    5.2098u 
    1.00000p    5.2101u    5.2098u 
    2.00000p    1.1457m  712.1147u 
    3.00000p    2.1293m    1.3614m 
    4.00000p    2.9237m    1.8983m 
    5.00000p    3.5144m    2.2967m 
    6.00000p    4.1050m    2.6952m 
    7.00000p    4.6956m    3.0937m 
    8.00000p    5.1664m    3.3909m 
    9.00000p    5.4512m    3.5310m 
   10.00000p    5.7360m    3.6711m 
   11.00000p    6.0208m    3.8113m 
   12.00000p    6.3056m    3.9514m 
   13.00000p    6.5904m    4.0915m 
   14.00000p    6.3600m    3.3557m 
   15.00000p    6.1028m    2.5744m 
   16.00000p    5.8456m    1.7931m 
   17.00000p    5.5884m    1.0118m 
   18.00000p    5.3312m  230.5031u 
   19.00000p    5.0740m -550.8077u 
   20.00000p    4.8168m   -1.3321m 
   21.00000p    4.5596m   -2.1134m 
   22.00000p    2.9607m   -3.7633m 
   23.00000p    1.3617m   -5.4132m 
   24.00000p -232.9688u   -7.0357m 
   25.00000p   -1.7716m   -8.4999m 
   26.00000p   -3.2327m   -9.8011m 
   27.00000p   -4.6937m  -11.1023m 
   28.00000p   -6.1037m  -12.3144m 
   29.00000p   -7.4304m  -13.3812m 
   30.00000p   -8.7572m  -14.4479m 
   31.00000p  -10.0839m  -15.5147m 
   32.00000p  -11.4095m  -16.5695m 
   33.00000p  -12.7255m  -17.5251m 
   34.00000p  -14.0415m  -18.4808m 
   35.00000p  -15.3575m  -19.4364m 
   36.00000p  -16.6735m  -20.3920m 
   37.00000p  -17.9894m  -21.3477m 
   38.00000p  -19.3068m  -22.3033m 
   39.00000p  -20.7162m  -23.2600m 
   40.00000p  -22.1255m  -24.2166m 
   41.00000p  -23.5349m  -25.1733m 
   42.00000p  -24.9442m  -26.1299m 
   43.00000p  -26.3535m  -27.0865m 
   44.00000p  -27.7209m  -27.9779m 
   45.00000p  -28.8897m  -28.5600m 
   46.00000p  -30.0584m  -29.1421m 
   47.00000p  -31.2272m  -29.7243m 
   48.00000p  -32.3959m  -30.3064m 
   49.00000p  -33.5647m  -30.8886m 
   50.00000p  -34.7334m  -31.4707m 
   51.00000p  -35.9022m  -32.0528m 
   52.00000p  -37.0710m  -32.6350m 
   53.00000p  -36.6613m  -31.4003m 
   54.00000p  -35.2098m  -28.9664m 
   55.00000p  -33.7582m  -26.5325m 
   56.00000p  -32.3067m  -24.0986m 
   57.00000p  -30.8552m  -21.6647m 
   58.00000p  -29.4037m  -19.2308m 
   59.00000p  -27.9521m  -16.7969m 
   60.00000p  -26.5006m  -14.3630m 
   61.00000p  -25.0491m  -11.9291m 
   62.00000p  -23.5976m   -9.4952m 
   63.00000p  -22.1461m   -7.0613m 
   64.00000p  -20.6945m   -4.6274m 
   65.00000p  -19.2430m   -2.1936m 
   66.00000p  -17.7915m  240.3412u 
   67.00000p  -16.3400m    2.6742m 
   68.00000p  -14.8884m    5.1081m 
   69.00000p  -13.4369m    7.5420m 
   70.00000p  -11.9854m    9.9759m 
   71.00000p  -10.5339m   12.4098m 
   72.00000p   -9.0824m   14.8437m 
   73.00000p   -7.6308m   17.2776m 
   74.00000p   -4.3356m   21.3613m 
   75.00000p  329.0869u   26.6703m 
   76.00000p    4.9937m   31.9792m 
   77.00000p    9.6584m   37.2882m 
   78.00000p   14.3230m   42.5972m 
   79.00000p   18.9876m   47.9062m 
   80.00000p   23.6523m   53.2151m 
   81.00000p   28.3169m   58.5241m 
   82.00000p   32.9816m   63.8331m 
   83.00000p   37.6462m   69.1421m 
   84.00000p   42.3108m   74.4511m 
   85.00000p   46.9755m   79.7600m 
   86.00000p   51.6401m   85.0690m 
   87.00000p   56.3048m   90.3780m 
   88.00000p   60.9694m   95.6870m 
   89.00000p   65.9018m  100.7797m 
   90.00000p   70.9501m  105.7790m 
   91.00000p   75.9984m  110.7782m 
   92.00000p   81.0466m  115.7774m 
   93.00000p   86.0949m  120.7766m 
   94.00000p   91.1432m  125.7758m 
   95.00000p   96.1915m  130.7750m 
   96.00000p  101.2398m  135.7743m 
   97.00000p  106.2881m  140.7735m 
   98.00000p  111.3363m  145.7727m 
   99.00000p  116.3846m  150.7719m 
  100.00000p  121.4329m  155.7711m 
  101.00000p  126.4812m  160.7704m 
  102.00000p  131.5295m  165.7696m 
  103.00000p  136.5778m  170.7688m 
  104.00000p  141.6260m  175.7680m 
  105.00000p  146.6743m  180.7672m 
  106.00000p  151.7226m  185.7664m 
  107.00000p  156.7709m  190.7657m 
  108.00000p  161.1291m  194.9576m 
  109.00000p  165.3568m  198.9969m 
  110.00000p  169.5845m  203.0362m 
  111.00000p  173.8121m  207.0755m 
  112.00000p  178.0398m  211.1148m 
  113.00000p  182.2675m  215.1541m 
  114.00000p  186.4952m  219.1933m 
  115.00000p  190.7229m  223.2326m 
  116.00000p  194.9505m  227.2719m 
  117.00000p  199.1782m  231.3112m 
  118.00000p  203.4059m  235.3505m 
  119.00000p  207.6336m  239.3898m 
  120.00000p  211.8613m  243.4291m 
  121.00000p  216.0890m  247.4683m 
  122.00000p  219.7679m  250.9052m 
  123.00000p  223.4468m  254.3420m 
  124.00000p  227.1142m  257.7598m 
  125.00000p  230.7315m  261.1156m 
  126.00000p  234.2738m  264.3884m 
  127.00000p  237.8162m  267.6612m 
  128.00000p  241.3586m  270.9339m 
  129.00000p  244.7598m  274.2298m 
  130.00000p  248.0782m  277.5391m 
  131.00000p  251.3965m  280.8485m 
  132.00000p  254.7148m  284.1579m 
  133.00000p  258.0332m  287.4673m 
  134.00000p  261.3515m  290.7766m 
  135.00000p  264.6698m  294.0860m 
  136.00000p  267.9881m  297.3954m 
  137.00000p  271.3065m  300.7047m 
  138.00000p  274.6248m  304.0141m 
  139.00000p  277.9431m  307.3235m 
  140.00000p  281.1661m  310.6995m 
  141.00000p  284.2930m  314.1427m 
  142.00000p  287.3957m  317.6809m 
  143.00000p  290.4765m  321.0309m 
  144.00000p  293.5417m  324.1145m 
  145.00000p  296.6006m  327.0895m 
  146.00000p  299.6596m  330.0646m 
  147.00000p  302.7360m  332.9744m 
  148.00000p  305.9606m  335.3311m 
  149.00000p  309.1853m  337.6878m 
  150.00000p  312.4099m  340.0445m 
  151.00000p  315.6346m  342.4012m 
  152.00000p  318.8592m  344.7579m 
  153.00000p  322.0839m  347.1145m 
  154.00000p  325.3085m  349.4712m 
  155.00000p  328.5332m  351.8279m 
  156.00000p  331.8136m  354.1121m 
  157.00000p  335.4305m  355.9592m 
  158.00000p  339.0474m  357.8063m 
  159.00000p  342.6643m  359.6534m 
  160.00000p  346.2811m  361.5004m 
  161.00000p  349.8980m  363.3475m 
  162.00000p  353.5149m  365.1946m 
  163.00000p  357.1799m  367.0103m 
  164.00000p  361.3266m  368.5116m 
  165.00000p  365.4734m  370.0128m 
  166.00000p  369.6202m  371.5140m 
  167.00000p  373.7670m  373.0153m 
  168.00000p  377.9137m  374.5165m 
  169.00000p  382.0605m  376.0177m 
  170.00000p  386.2073m  377.5190m 
  171.00000p  390.3541m  379.0202m 
  172.00000p  394.7234m  380.4020m 
  173.00000p  399.5311m  381.5489m 
  174.00000p  404.3387m  382.6957m 
  175.00000p  409.1463m  383.8425m 
  176.00000p  413.9539m  384.9893m 
  177.00000p  418.7616m  386.1362m 
  178.00000p  423.5692m  387.2830m 
  179.00000p  428.3768m  388.4298m 
  180.00000p  433.1844m  389.5767m 
  181.00000p  437.9921m  390.7235m 
  182.00000p  443.5870m  391.5293m 
  183.00000p  449.2056m  392.3249m 
  184.00000p  454.8243m  393.1204m 
  185.00000p  460.4430m  393.9159m 
  186.00000p  466.0616m  394.7115m 
  187.00000p  471.6803m  395.5070m 
  188.00000p  477.2990m  396.3025m 
  189.00000p  482.9176m  397.0981m 
  190.00000p  488.5363m  397.8936m 
  191.00000p  494.1550m  398.6892m 
  192.00000p  499.7736m  399.4847m 
  193.00000p  505.3923m  400.2802m 
  194.00000p  511.0110m  401.0758m 
  195.00000p  517.1770m  401.7005m 
  196.00000p  523.4788m  402.2829m 
  197.00000p  529.7805m  402.8653m 
  198.00000p  536.0822m  403.4477m 
  199.00000p  542.3840m  404.0301m 
  200.00000p  548.6857m  404.6125m 
  201.00000p  554.9874m  405.1949m 
  202.00000p  561.5824m  405.8069m 
  203.00000p  568.1773m  406.4189m 
  204.00000p  574.7795m  407.0315m 
  205.00000p  581.4374m  407.6194m 
  206.00000p  588.1245m  408.1920m 
  207.00000p  594.8115m  408.7645m 
  208.00000p  601.5876m  409.2546m 
  209.00000p  608.3824m  409.7272m 
  210.00000p  615.1773m  410.1998m 
  211.00000p  621.9721m  410.6724m 
  212.00000p  628.7670m  411.1450m 
  213.00000p  635.5618m  411.6176m 
  214.00000p  642.3566m  412.0902m 
  215.00000p  649.1515m  412.5628m 
  216.00000p  655.9463m  413.0355m 
  217.00000p  662.7801m  413.3955m 
  218.00000p  669.6198m  413.7382m 
  219.00000p  676.4596m  414.0809m 
  220.00000p  683.2993m  414.4237m 
  221.00000p  690.1390m  414.7664m 
  222.00000p  696.9131m  414.9016m 
  223.00000p  703.6831m  415.0318m 
  224.00000p  710.4060m  415.1214m 
  225.00000p  717.1143m  415.1987m 
  226.00000p  723.6611m  415.1270m 
  227.00000p  729.9851m  414.8497m 
  228.00000p  736.3092m  414.5724m 
  229.00000p  742.6332m  414.2951m 
  230.00000p  748.9572m  414.0178m 
  231.00000p  755.2812m  413.7405m 
  232.00000p  761.6052m  413.4632m 
  233.00000p  767.9292m  413.1859m 
  234.00000p  773.3470m  412.1641m 
  235.00000p  778.7549m  411.1343m 
  236.00000p  784.1629m  410.1045m 
  237.00000p  789.5709m  409.0747m 
