Using: /opt/synopsys/hspice/O-2018.09-SP2-2/hspice/linux64/hspice c17.sp
 ****** HSPICE -- O-2018.09-SP2-2 linux64 (May  9 2019) ******                  
  Copyright (c) 1986 - 2020 by Synopsys, Inc. All Rights Reserved.              
  This software and the associated documentation are proprietary
  to Synopsys, Inc. This software may only be used in accordance
  with the terms and conditions of a written license agreement with
  Synopsys, Inc. All other use, reproduction, or distribution of
  this software is strictly prohibited.
  Input File: c17.sp                                                            
  Command line options: /opt/synopsys/hspice/O-2018.09-SP2-2/hspice/linux64/hspice c17.sp
  Start time: Sun May 10 16:34:45 2020
 lic:  
 lic: FLEXlm: SDK_11.7.3 
 lic: USER:   mitsushij            HOSTNAME: sahand 
 lic: HOSTID: "80c16e72eecb"       PID:      71105 
 lic: Using FLEXlm license file: 
 lic: 1720@ics-lic2.usc.edu 
 lic: Checkout 1 hspice 
 lic: License/Maintenance for hspice will expire on 30-jun-2021/2019.06 
 lic: 1(in_use)/50(total) FLOATING license(s) on SERVER 1720@ics-lic2.usc.edu 
 lic:   
  **warning** (/home/home2/visiting/mitsushij/workspace/CSM/simulation/../data/modelfiles/PTM_MG/hp/7nm_HP.pm:13) Model nfet device geometries will not be checked against the limits set by lmin, lmax, nfinmin and nfinmax. To enable this check, add a period(.) to the model name(i.e. enable model selector).
1****** HSPICE -- O-2018.09-SP2-2 linux64 (May  9 2019) ******                  
 ******  
 * eda yan

 ****** circuit name directory
 circuit number to circuit name directory
   number circuitname                     definition         multiplier
        0 main circuit
        1 xnand2_1.                       nand2              1.00 
        2 xnand2_2.                       nand2              1.00 
        3 xnand2_3.                       nand2              1.00 
        4 xnand2_4.                       nand2              1.00 
        5 xnand2_5.                       nand2              1.00 
        6 xnand2_6.                       nand2              1.00 
  **info** (c17.sp:24) DC voltage reset to initial transient source value in source 0:vn1. new dc=0.0000D+00
  
  **warning**  the following singular supplies have a terminal that is not connected to any other element
 supply                 node1                  node2
 vlo                 0:lo               defined in subckt 0            0:0                defined in subckt 0
  
      

Element variations(Local):   element              parameter
 **info** set option symb=1 internally to help for convergence.
 *****************************************************************
 ******  option summary
 ******
 runlvl  = 3         bypass  = 2.0000    
 ******  
 * eda yan

 ****** operating point information tnom=  25.000 temp=  25.000 ******
 ****** operating point status is all       simulation time is     0.     
    node    =voltage      node    =voltage      node    =voltage

 +0:hi      = 700.0000m 0:lo      =   0.      0:n1      =   0.     
 +0:n10     = 699.9987m 0:n11     = 699.9987m 0:n16     = 699.9850m
 +0:n19     = 699.9870m 0:n2      =   0.      0:n22     =  46.3304u
 +0:n23     =  46.3385u 0:n3      =   0.      0:n6      =   0.     
 +0:n7      =   0.      1:n1      =  54.8555m 2:n1      =  54.8555m
 +3:n1      =  12.0165u 4:n1      = 646.0377m 5:n1      =  23.2344u
 +6:n1      =  23.2384u


 **** voltage sources

 subckt                                                                    
 element  0:vhi      0:vlo      0:vn1      0:vn2      0:vn3      0:vn6     
  volts    700.0000m    0.         0.         0.         0.         0.     
  current  -24.2852n    0.        46.6053f   46.6030f   93.2105f   46.6053f
  power     16.9996n    0.         0.         0.         0.         0.     

 subckt             
 element  0:vn7     
  volts      0.     
  current   46.6033f
  power      0.     

     total voltage source power dissipation=   16.9996n       watts




 **** mosfets


 subckt   xnand2_1   xnand2_1   xnand2_1   xnand2_1   xnand2_2   xnand2_2  
 element  1:mp2      1:mp1      1:mn1      1:mn2      2:mp2      2:mp1     
 model    0:pfet     0:pfet     0:nfet     0:nfet     0:pfet     0:pfet    
 region   Linear     Linear     Subth      Subth      Linear     Linear    
  id      -352.3317p -352.3317p  658.6434p  658.6433p -352.3361p -352.3361p
  ibs        0.         0.         0.         0.         0.         0.     
  ibd        0.         0.         0.         0.         0.         0.     
  vgs     -700.0000m -700.0000m  -54.8555m    0.      -700.0000m -700.0000m
  vds       -1.3012u   -1.3012u  645.1432m   54.8555m   -1.3012u   -1.3012u
  vbs        0.         0.       -54.8555m    0.         0.         0.     
  vth     -227.8906m -227.8906m  197.6230m  222.6171m -227.8906m -227.8906m
  vdsat    -32.0938m  -32.0938m   13.9446m   13.9447m  -32.0938m  -32.0938m
  vod     -472.1094m -472.1094m -252.4785m -222.6171m -472.1094m -472.1094m
  beta      13.2499m   13.2499m   20.5058m   20.5058m   13.2499m   13.2499m
  gam eff    0.         0.         0.         0.         0.         0.     
  gm       805.1048p  805.1048p   19.9460n   20.3409n  805.1149p  805.1149p
  gds        2.8716m    2.8716m    1.6776n    2.1784n    2.8716m    2.8716m
  gmb        0.         0.         0.         0.         0.         0.     
  cdtot     20.6419a   20.6419a   13.6538a   13.6538a   20.6419a   20.6419a
  cgtot     48.2719a   48.2719a   27.3084a   27.3093a   48.2719a   48.2719a
  cstot     20.6419a   20.6419a   13.6542a   13.6547a   20.6419a   20.6419a
  cbtot      0.         0.         0.         0.         0.         0.     
  cgs       24.1359a   24.1359a   13.6546a   13.6555a   24.1359a   24.1359a
  cgd       24.1359a   24.1359a   13.6538a   13.6538a   24.1359a   24.1359a



 subckt   xnand2_2   xnand2_2   xnand2_3   xnand2_3   xnand2_3   xnand2_3  
 element  2:mn1      2:mn2      3:mp2      3:mp1      3:mn1      3:mn2     
 model    0:nfet     0:nfet     0:pfet     0:pfet     0:nfet     0:nfet    
 region   Subth      Subth      Subth      Linear     Subth      Linear    
  id       658.6434p  658.6433p -431.9300f   -4.0591n    3.9676n    3.9906n
  ibs        0.         0.         0.         0.         0.         0.     
  ibd        0.         0.         0.         0.         0.         0.     
  vgs      -54.8555m    0.        -1.3012u -700.0000m  -12.0165u  699.9987m
  vds      645.1432m   54.8555m  -14.9911u  -14.9911u  699.9730m   12.0165u
  vbs      -54.8555m    0.         0.         0.       -12.0165u    0.     
  vth      197.6230m  222.6171m -227.8906m -227.8906m  195.1081m  223.2693m
  vdsat     13.9446m   13.9447m  -17.7522m  -32.0936m   13.9451m   26.1802m
  vod     -252.4785m -222.6171m  227.8893m -472.1094m -195.1201m  476.7294m
  beta      20.5058m   20.5058m   13.2499m   13.2499m   20.5058m   20.5058m
  gam eff    0.         0.         0.         0.         0.         0.     
  gm        19.9460n   20.3409n   13.3461p    9.2757n  119.8791n    6.2457n
  gds        1.6776n    2.1784n   28.8085n    2.8715m    9.7031n    3.8426m
  gmb        0.         0.         0.         0.         0.         0.     
  cdtot     13.6538a   13.6538a   13.6544a   20.6419a   13.6537a   20.6602a
  cgtot     27.3084a   27.3093a   27.3094a   48.2718a   27.3118a   48.3269a
  cstot     13.6542a   13.6547a   13.6544a   20.6419a   13.6562a   20.6602a
  cbtot      0.         0.         0.         0.         0.         0.     
  cgs       13.6546a   13.6555a   13.6547a   24.1359a   13.6582a   24.1635a
  cgd       13.6538a   13.6538a   13.6547a   24.1359a   13.6536a   24.1634a



 subckt   xnand2_4   xnand2_4   xnand2_4   xnand2_4   xnand2_5   xnand2_5  
 element  4:mp2      4:mp1      4:mn1      4:mn2      5:mp2      5:mp1     
 model    0:pfet     0:pfet     0:nfet     0:nfet     0:pfet     0:pfet    
 region   Linear     Subth      Subth      Subth      Subth      Subth     
  id        -3.5205n -374.6240f    3.4749n    3.4749n   -3.8243n   -3.8227n
  ibs        0.         0.         0.         0.         0.         0.     
  ibd        0.         0.         0.         0.         0.         0.     
  vgs     -700.0000m   -1.3012u   53.9610m    0.       -14.9911u   -1.3012u
  vds      -13.0018u  -13.0018u   53.9493m  646.0377m -699.9537m -699.9537m
  vbs        0.         0.      -646.0377m    0.         0.         0.     
  vth     -227.8906m -227.8906m  222.6374m  197.5824m -188.8625m -188.8625m
  vdsat    -32.0936m  -17.7522m   13.9457m   13.9451m  -17.7531m  -17.7531m
  vod     -472.1094m  227.8893m -168.6764m -197.5824m  188.8475m  188.8612m
  beta      13.2499m   13.2499m   20.5058m   20.5058m   13.2499m   13.2499m
  gam eff    0.         0.         0.         0.         0.         0.     
  gm         8.0448n   11.5754p  107.2751n  105.1974n  115.5475n  115.4997n
  gds        2.8715m   28.8103n   11.4369n    8.6405n   11.4693n   11.4646n
  gmb        0.         0.         0.         0.         0.         0.     
  cdtot     20.6419a   13.6544a   13.6538a   13.6537a   13.6537a   13.6537a
  cgtot     48.2718a   27.3094a   27.3163a   27.3115a   27.3125a   27.3125a
  cstot     20.6419a   13.6544a   13.6585a   13.6560a   13.6566a   13.6566a
  cbtot      0.         0.         0.         0.         0.         0.     
  cgs       24.1359a   13.6547a   13.6626a   13.6579a   13.6590a   13.6590a
  cgd       24.1359a   13.6547a   13.6537a   13.6536a   13.6535a   13.6535a



 subckt   xnand2_5   xnand2_5   xnand2_6   xnand2_6   xnand2_6   xnand2_6  
 element  5:mn1      5:mn2      6:mp2      6:mp1      6:mn1      6:mn2     
 model    0:nfet     0:nfet     0:pfet     0:pfet     0:nfet     0:nfet    
 region   Linear     Linear     Subth      Subth      Linear     Linear    
  id         7.6700n    7.7159n   -3.8240n   -3.8243n    7.6713n    7.7173n
  ibs        0.         0.         0.         0.         0.         0.     
  ibd        0.         0.         0.         0.         0.         0.     
  vgs      699.9755m  699.9850m  -13.0018u  -14.9911u  699.9618m  699.9870m
  vds       23.0960u   23.2344u -699.9537m -699.9537m   23.1001u   23.2384u
  vbs      -23.2344u    0.         0.         0.       -23.2384u    0.     
  vth      223.2693m  223.2693m -188.8625m -188.8625m  223.2693m  223.2693m
  vdsat     26.1790m   26.1794m  -17.7531m  -17.7531m   26.1784m   26.1795m
  vod      476.7062m  476.7157m  188.8495m  188.8475m  476.6925m  476.7177m
  beta      20.5058m   20.5058m   13.2499m   13.2499m   20.5058m   20.5058m
  gam eff    0.         0.         0.         0.         0.         0.     
  gm        12.0065n   12.0777n  115.5405n  115.5475n   12.0096n   12.0796n
  gds        3.8424m    3.8424m   11.4686n   11.4693n    3.8423m    3.8424m
  gmb        0.         0.         0.         0.         0.         0.     
  cdtot     20.6601a   20.6601a   13.6537a   13.6537a   20.6600a   20.6601a
  cgtot     48.3265a   48.3267a   27.3125a   27.3125a   48.3264a   48.3267a
  cstot     20.6601a   20.6602a   13.6566a   13.6566a   20.6601a   20.6602a
  cbtot      0.         0.         0.         0.         0.         0.     
  cgs       24.1633a   24.1634a   13.6590a   13.6590a   24.1632a   24.1634a
  cgd       24.1632a   24.1633a   13.6535a   13.6535a   24.1631a   24.1633a



 ******
 * eda yan

 ****** transient analysis tnom=  25.000 temp=  25.000 ******
x

 time         voltage    voltage   
             n22        n23        
    0.         46.3304u   46.3385u 
  100.00000f   46.3304u   46.3385u 
  200.00000f   46.3304u   46.3385u 
  300.00000f   46.3304u   46.3385u 
  400.00000f   46.3304u   46.3385u 
  500.00000f   46.3304u   46.3385u 
  600.00000f   46.3304u   46.3385u 
  700.00000f   46.3304u   46.3385u 
  800.00000f   46.3304u   46.3385u 
  900.00000f   46.3304u   46.3385u 
    1.00000p   46.3304u   46.3385u 
    1.10000p  237.0861u  193.4149u 
    1.20000p  427.8419u  340.4912u 
    1.30000p  557.3020u  449.4874u 
    1.40000p  682.0292u  555.5431u 
    1.50000p  764.4640u  630.4260u 
    1.60000p  743.3449u  628.9812u 
    1.70000p  722.2257u  627.5363u 
    1.80000p  701.1066u  626.0915u 
    1.90000p  679.9874u  624.6466u 
    2.00000p  658.8682u  623.2018u 
    2.10000p  637.7491u  621.7569u 
    2.20000p  611.9382u  609.7461u 
    2.30000p  578.3621u  580.2475u 
    2.40000p  544.7860u  550.7488u 
    2.50000p  511.2098u  521.2501u 
    2.60000p  477.6337u  491.7514u 
    2.70000p  444.0575u  462.2528u 
    2.80000p  410.4814u  432.7541u 
    2.90000p  376.9052u  403.2554u 
    3.00000p  343.3291u  373.7568u 
    3.10000p  309.7530u  344.2581u 
    3.20000p  276.1768u  314.7594u 
    3.30000p  242.6007u  285.2607u 
    3.40000p  209.0245u  255.7621u 
    3.50000p  175.4484u  226.2634u 
    3.60000p  141.8723u  196.7647u 
    3.70000p  129.1605u  182.3534u 
    3.80000p  125.6697u  174.6099u 
    3.90000p  122.1789u  166.8663u 
    4.00000p  118.6881u  159.1228u 
    4.10000p  115.1973u  151.3793u 
    4.20000p  111.7065u  143.6358u 
    4.30000p  108.2157u  135.8922u 
    4.40000p  104.7249u  128.1487u 
    4.50000p  101.2340u  120.4052u 
    4.60000p   97.7432u  112.6617u 
    4.70000p   94.2524u  104.9181u 
    4.80000p   90.7616u   97.1746u 
    4.90000p   87.2708u   89.4311u 
    5.00000p   83.7800u   81.6876u 
    5.10000p   80.2892u   73.9440u 
    5.20000p   76.7984u   66.2005u 
    5.30000p   73.3076u   58.4570u 
    5.40000p   69.8168u   50.7135u 
    5.50000p   65.1723u   44.2752u 
    5.60000p   59.3264u   39.1961u 
    5.70000p   53.4805u   34.1171u 
    5.80000p   47.6346u   29.0381u 
    5.90000p   41.7887u   23.9591u 
    6.00000p   35.9428u   18.8801u 
    6.10000p   30.0970u   13.8011u 
    6.20000p   24.2511u    8.7221u 
    6.30000p   18.4052u    3.6431u 
    6.40000p   12.5593u   -1.4359u 
    6.50000p    9.4882u   -6.0246u 
    6.60000p    9.9006u   -9.9979u 
    6.70000p   10.3129u  -13.9712u 
    6.80000p   10.7253u  -17.9445u 
    6.90000p   11.1376u  -21.9178u 
    7.00000p   11.5500u  -25.8910u 
    7.10000p   11.9623u  -29.8643u 
    7.20000p   12.3747u  -33.8376u 
    7.30000p    9.7532u  -41.5053u 
    7.40000p    2.6970u  -54.5731u 
    7.50000p   -4.3592u  -67.6410u 
    7.60000p  -11.4153u  -80.7088u 
    7.70000p  -18.4715u  -93.7766u 
    7.80000p  -25.5277u -106.8445u 
    7.90000p  -32.5839u -119.9123u 
    8.00000p  -39.6400u -132.9802u 
    8.10000p  -46.6962u -146.0480u 
    8.20000p  -53.7524u -159.1158u 
    8.30000p  -60.8086u -172.1837u 
    8.40000p  -67.8647u -185.2515u 
    8.50000p  -74.9209u -198.3194u 
    8.60000p  -81.9771u -211.3872u 
    8.70000p  -89.0333u -224.4550u 
    8.80000p  -96.0894u -237.5229u 
    8.90000p -103.1456u -250.5907u 
    9.00000p -110.2018u -263.6585u 
    9.10000p -117.2580u -276.7264u 
    9.20000p -124.3141u -289.7942u 
    9.30000p -131.3703u -302.8621u 
    9.40000p -138.4265u -315.9299u 
    9.50000p -145.4827u -328.9977u 
    9.60000p -152.5388u -342.0656u 
    9.70000p -159.5950u -355.1334u 
    9.80000p -166.6512u -368.2013u 
    9.90000p -178.6663u -394.3189u 
   10.00000p -192.9378u -426.3744u 
   10.10000p -207.2094u -458.4300u 
   10.20000p -221.4809u -490.4855u 
   10.30000p -235.7525u -522.5411u 
   10.40000p -250.0240u -554.5967u 
   10.50000p -264.2956u -586.6522u 
   10.60000p -278.5671u -618.7078u 
   10.70000p -292.8387u -650.7633u 
   10.80000p -307.1102u -682.8189u 
   10.90000p -321.3818u -714.8745u 
   11.00000p -335.6533u -746.9300u 
   11.10000p -349.9249u -778.9856u 
   11.20000p -364.1964u -811.0411u 
   11.30000p -378.4680u -843.0967u 
   11.40000p -392.7395u -875.1522u 
   11.50000p -407.0111u -907.2078u 
   11.60000p -421.2826u -939.2634u 
   11.70000p -435.5542u -971.3189u 
   11.80000p -449.8257u   -1.0034m 
   11.90000p -470.7504u   -1.0606m 
   12.00000p -496.1780u   -1.1348m 
   12.10000p -521.6056u   -1.2091m 
   12.20000p -547.0333u   -1.2833m 
   12.30000p -572.4609u   -1.3575m 
   12.40000p -597.8885u   -1.4318m 
   12.50000p -625.7011u   -1.5298m 
   12.60000p -656.1657u   -1.6544m 
   12.70000p -686.6302u   -1.7790m 
   12.80000p -717.0948u   -1.9036m 
   12.90000p -747.5594u   -2.0282m 
   13.00000p -810.6387u   -2.1587m 
   13.10000p -897.8046u   -2.2936m 
   13.20000p -984.9704u   -2.4286m 
   13.30000p   -1.0721m   -2.5635m 
   13.40000p   -1.1593m   -2.6984m 
   13.50000p   -1.2465m   -2.8333m 
   13.60000p   -1.3336m   -2.9682m 
   13.70000p   -1.4208m   -3.1032m 
   13.80000p   -1.5080m   -3.2381m 
   13.90000p   -1.5951m   -3.3730m 
   14.00000p   -1.6823m   -3.5079m 
   14.10000p   -1.7695m   -3.6429m 
   14.20000p   -1.8770m   -3.7794m 
   14.30000p   -2.0061m   -3.9177m 
   14.40000p   -2.1352m   -4.0559m 
   14.50000p   -2.2642m   -4.1942m 
   14.60000p   -2.3933m   -4.3324m 
   14.70000p   -2.5224m   -4.4707m 
   14.80000p   -2.6515m   -4.6090m 
   14.90000p   -2.7805m   -4.7472m 
   15.00000p   -2.9096m   -4.8855m 
   15.10000p   -3.0387m   -5.0238m 
   15.20000p   -3.1678m   -5.1620m 
   15.30000p   -3.2968m   -5.3003m 
   15.40000p   -3.4646m   -5.6231m 
   15.50000p   -3.6612m   -6.0828m 
   15.60000p   -3.8577m   -6.5425m 
   15.70000p   -4.0542m   -7.0021m 
   15.80000p   -4.2507m   -7.4618m 
   15.90000p   -4.4472m   -7.9215m 
   16.00000p   -4.6437m   -8.3811m 
   16.10000p   -4.8402m   -8.8408m 
   16.20000p   -5.0367m   -9.3005m 
   16.30000p   -5.2333m   -9.7601m 
   16.40000p   -5.4298m  -10.2198m 
   16.50000p   -5.6263m  -10.6795m 
   16.60000p   -5.8228m  -11.1391m 
   16.70000p   -6.0193m  -11.5988m 
   16.80000p   -6.2446m  -12.0511m 
   16.90000p   -6.8579m  -12.4037m 
   17.00000p   -7.4712m  -12.7563m 
   17.10000p   -8.0845m  -13.1089m 
   17.20000p   -8.6978m  -13.4615m 
   17.30000p   -9.3111m  -13.8141m 
   17.40000p   -9.9244m  -14.1667m 
   17.50000p  -10.5377m  -14.5193m 
   17.60000p  -11.1510m  -14.8719m 
   17.70000p  -11.7643m  -15.2245m 
   17.80000p  -12.3776m  -15.5771m 
   17.90000p  -12.9909m  -15.9297m 
   18.00000p  -13.6042m  -16.2824m 
   18.10000p  -14.2175m  -16.6350m 
   18.20000p  -14.8308m  -16.9876m 
   18.30000p  -15.4441m  -17.3402m 
   18.40000p  -16.0574m  -17.6928m 
   18.50000p  -16.0607m  -13.8932m 
   18.60000p  -15.9455m   -9.2871m 
   18.70000p  -15.8303m   -4.6810m 
   18.80000p  -15.7151m  -74.8455u 
   18.90000p  -15.5999m    4.5313m 
   19.00000p  -15.4848m    9.1374m 
   19.10000p  -15.3696m   13.7435m 
   19.20000p  -15.2544m   18.3497m 
   19.30000p  -15.1392m   22.9558m 
   19.40000p  -15.0240m   27.5619m 
   19.50000p  -14.9088m   32.1681m 
   19.60000p  -14.7936m   36.7742m 
   19.70000p  -14.6785m   41.3803m 
   19.80000p  -14.5633m   45.9864m 
   19.90000p  -14.4481m   50.5926m 
   20.00000p  -14.3329m   55.1987m 
   20.10000p  -12.3046m   64.2084m 
   20.20000p   -8.9027m   76.3795m 
   20.30000p   -5.5008m   88.5506m 
   20.40000p   -2.0990m  100.7218m 
   20.50000p    1.3029m  112.8929m 
   20.60000p    4.7047m  125.0640m 
   20.70000p    8.1066m  137.2351m 
   20.80000p   12.1899m  150.9746m 
   20.90000p   17.6184m  167.8106m 
   21.00000p   23.0470m  184.6466m 
   21.10000p   28.4756m  201.4827m 
   21.20000p   33.9041m  218.3187m 
   21.30000p   39.3327m  235.1547m 
   21.40000p   44.7612m  251.9907m 
   21.50000p   50.9362m  268.5659m 
   21.60000p   64.6291m  282.5150m 
   21.70000p   78.3221m  296.4640m 
   21.80000p   92.0150m  310.4131m 
   21.90000p  105.7079m  324.3621m 
   22.00000p  119.4008m  338.3112m 
   22.10000p  133.0937m  352.2602m 
   22.20000p  146.7866m  366.2092m 
   22.30000p  160.4795m  380.1583m 
   22.40000p  174.1724m  394.1073m 
   22.50000p  187.8653m  408.0564m 
   22.60000p  206.1873m  414.3316m 
   22.70000p  227.1160m  416.2855m 
   22.80000p  248.0447m  418.2394m 
   22.90000p  268.9734m  420.1932m 
   23.00000p  289.9022m  422.1471m 
   23.10000p  310.8309m  424.1010m 
   23.20000p  335.7211m  419.4877m 
   23.30000p  361.8602m  412.8041m 
   23.40000p  387.9992m  406.1206m 
   23.50000p  414.1383m  399.4371m 
