Using: /opt/synopsys/hspice/O-2018.09-SP2-2/hspice/linux64/hspice c17.sp
 ****** HSPICE -- O-2018.09-SP2-2 linux64 (May  9 2019) ******                  
  Copyright (c) 1986 - 2020 by Synopsys, Inc. All Rights Reserved.              
  This software and the associated documentation are proprietary
  to Synopsys, Inc. This software may only be used in accordance
  with the terms and conditions of a written license agreement with
  Synopsys, Inc. All other use, reproduction, or distribution of
  this software is strictly prohibited.
  Input File: c17.sp                                                            
  Command line options: /opt/synopsys/hspice/O-2018.09-SP2-2/hspice/linux64/hspice c17.sp
  Start time: Tue May 12 01:57:07 2020
 lic:  
 lic: FLEXlm: SDK_11.7.3 
 lic: USER:   mitsushij            HOSTNAME: sahand 
 lic: HOSTID: "80c16e72eecb"       PID:      75387 
 lic: Using FLEXlm license file: 
 lic: 1720@ics-lic2.usc.edu 
 lic: Checkout 1 hspice 
 lic: License/Maintenance for hspice will expire on 30-jun-2021/2019.06 
 lic: 1(in_use)/50(total) FLOATING license(s) on SERVER 1720@ics-lic2.usc.edu 
 lic:   
1****** HSPICE -- O-2018.09-SP2-2 linux64 (May  9 2019) ******                  
 ******  
 * eda yan

 ****** circuit name directory
 circuit number to circuit name directory
   number circuitname                     definition         multiplier
        0 main circuit
        1 xnand2_1.                       nand2              1.00 
        2 xnand2_2.                       nand2              1.00 
        3 xnand2_3.                       nand2              1.00 
        4 xnand2_4.                       nand2              1.00 
        5 xnand2_5.                       nand2              1.00 
        6 xnand2_6.                       nand2              1.00 
  **info** (c17.sp:24) DC voltage reset to initial transient source value in source 0:vn1. new dc=0.0000D+00
  **warning** (nmos:mn1 (./gate_inventory_gen.sp:18)) Warning:  Acde = 0.231197 may be too small in BSIM4 model with w=3.2e-08 l=1.6e-08.
  

  **warning** the following singular supplies were terminated to 1 meg resistor 
          supply       node1            node2
(c17.sp:10)vlo                     0:lo               defined in subckt 0                     0:0                defined in subckt 0               
      

Element variations(Local):   element              parameter
 **info** set option symb=1 internally to help for convergence.
 *****************************************************************
 ******  option summary
 ******
 runlvl  = 3         bypass  = 2.0000    
 **info** dc convergence successful at Newton-Raphson method 
 ******  
 * eda yan

 ****** operating point information tnom=  25.000 temp=  25.000 ******
 ****** operating point status is all       simulation time is     0.     
    node    =voltage      node    =voltage      node    =voltage

 +0:hi      = 700.0000m 0:lo      =   0.      0:n1      =   0.     
 +0:n10     = 699.9985m 0:n11     = 699.9985m 0:n16     = 699.7754m
 +0:n19     = 699.9518m 0:n2      =   0.      0:n22     = 425.4323u
 +0:n23     = 425.6903u 0:n3      =   0.      0:n6      =   0.     
 +0:n7      =   0.      1:n1      = 114.8070m 2:n1      = 114.8070m
 +3:n1      =  84.9180u 4:n1      = 504.3631m 5:n1      = 212.7914u
 +6:n1      = 212.8560u


 **** voltage sources

 subckt                                                                    
 element  0:vhi      0:vlo      0:vn1      0:vn2      0:vn3      0:vn6     
  volts    700.0000m    0.         0.         0.         0.         0.     
  current  -65.5073n    0.        14.5175p   14.2479p   14.9911p  473.5385f
  power     45.8551n    0.         0.         0.         0.         0.     

 subckt             
 element  0:vn7     
  volts      0.     
  current    5.7060p
  power      0.     

     total voltage source power dissipation=   45.8551n       watts




 **** mosfets


 subckt   xnand2_1   xnand2_1   xnand2_1   xnand2_1   xnand2_2   xnand2_2  
 element  1:mp2      1:mp1      1:mn1      1:mn2      2:mp2      2:mp1     
 model    0:pmos     0:pmos     0:nmos     0:nmos     0:pmos     0:pmos    
 region   Linear     Linear     Cutoff     Cutoff     Linear     Linear    
  id       -72.3004p  -72.3004p  109.0538p  108.3019p  -72.3372p  -72.3372p
  ibs     -4.040e-25 -4.040e-25 -114.8095f  1.169e-25 -4.040e-25 -4.040e-25
  ibd        2.1433a    2.1433a -709.9985f -124.6924f    2.1444a    2.1444a
  vgs     -700.0000m -700.0000m -114.8070m    0.      -700.0000m -700.0000m
  vds       -1.5428u   -1.5428u  585.1915m  114.8070m   -1.5436u   -1.5436u
  vbs        0.         0.      -114.8070m    0.         0.         0.     
  vth     -394.7685m -394.7685m  312.2149m  419.4744m -394.7685m -394.7685m
  vdsat   -294.2859m -294.2859m   41.6332m   42.7304m -294.2859m -294.2859m
  vod     -305.2315m -305.2315m -427.0219m -419.4744m -305.2315m -305.2315m
  beta     201.1169u  201.1169u    2.0841m    1.6250m  201.1169u  201.1169u
  gam eff  400.0000m  400.0000m  400.0000m  400.0000m  400.0000m  400.0000m
  gm       170.4247p  170.4247p    2.8621n    2.7858n  170.5114p  170.5114p
  gds       46.8618u   46.8618u  893.7207p  884.3711p   46.8618u   46.8618u
  gmb       43.7102p   43.7102p  674.8890p  708.2593p   43.7324p   43.7324p
  cdtot     32.2976a   32.2976a   18.2431a   22.1624a   32.2976a   32.2976a
  cgtot     24.9837a   24.9837a   13.0450a   16.0003a   24.9837a   24.9837a
  cstot     35.5210a   35.5210a   31.4088a   33.3260a   35.5210a   35.5210a
  cbtot     42.8408a   42.8408a   39.5494a   42.4307a   42.8408a   42.8408a
  cgs       14.5078a   14.5078a    6.7518a    7.7773a   14.5078a   14.5078a
  cgd       10.0562a   10.0562a    4.8220a    6.7517a   10.0562a   10.0562a



 subckt   xnand2_2   xnand2_2   xnand2_3   xnand2_3   xnand2_3   xnand2_3  
 element  2:mn1      2:mn2      3:mp2      3:mp1      3:mn1      3:mn2     
 model    0:nmos     0:nmos     0:pmos     0:pmos     0:nmos     0:nmos    
 region   Cutoff     Cutoff     Subth      Linear     Subth      Linear    
  id       109.0538p  108.3019p -118.2927f  -10.5229n   10.4667n   10.4770n
  ibs     -114.8095f  1.169e-25 -1.110e-28 -4.047e-25  -84.9264a  3.092e-25
  ibd     -709.9985f -124.6924f  311.6017a  311.6017a -709.7754f -117.9159a
  vgs     -114.8070m    0.        -1.5436u -700.0000m  -84.9180u  699.9985m
  vds      585.1915m  114.8070m -224.5726u -224.5726u  699.6905m   84.9180u
  vbs     -114.8070m    0.         0.         0.       -84.9180u    0.     
  vth      312.2149m  419.4744m -394.6967m -394.6967m  260.2480m  450.7090m
  vdsat     41.6332m   42.7304m  -47.2362m -294.3379m   41.1980m  208.6141m
  vod     -427.0219m -419.4744m  394.6951m -305.3033m -260.3329m  249.2894m
  beta       2.0841m    1.6250m  184.4803u  201.1340u    2.3526m    1.2071m
  gam eff  400.0000m  400.0000m  400.0000m  400.0000m  400.0000m  400.0000m
  gm         2.8621n    2.7858n    3.1967p   24.8058n  259.0929n   15.8362n
  gds      893.7207p  884.3711p  526.4469p   46.8528u   85.4228n  123.3661u
  gmb      674.8890p  708.2593p  720.9942f    6.3617n   58.6365n    4.6336n
  cdtot     18.2431a   22.1624a   23.7173a   32.2706a   18.2438a   32.4765a
  cgtot     13.0450a   16.0003a   16.9081a   24.9832a   14.0707a   25.0689a
  cstot     31.4088a   33.3260a   33.3013a   35.5360a   33.3253a   35.4710a
  cbtot     39.5494a   42.4307a   42.9207a   42.8389a   40.4411a   42.8830a
  cgs        6.7518a    7.7773a    7.7525a   14.5139a    7.7776a   14.4114a
  cgd        4.8220a    6.7517a    7.7505a   10.0495a    4.8220a   10.2928a



 subckt   xnand2_4   xnand2_4   xnand2_4   xnand2_4   xnand2_5   xnand2_5  
 element  4:mp2      4:mp1      4:mn1      4:mn2      5:mp2      5:mp1     
 model    0:pmos     0:pmos     0:nmos     0:nmos     0:pmos     0:pmos    
 region   Linear     Subth      Subth      Subth      Subth      Subth     
  id        -2.2585n  -25.3978f    2.2370n    2.2305n  -13.1404n  -13.0683n
  ibs     -4.043e-25    0.      -504.3657f  4.823e-25 -6.655e-25 -6.655e-25
  ibd       66.9363a   66.9363a -709.9518f -514.3631f  709.5746f  709.5746f
  vgs     -700.0000m   -1.5436u  195.6353m    0.      -224.5726u   -1.5428u
  vds      -48.1950u  -48.1950u  195.5887m  504.3631m -699.5746m -699.5746m
  vbs        0.         0.      -504.3631m    0.         0.         0.     
  vth     -394.7535m -394.7535m  481.3196m  313.4126m -169.3213m -169.3213m
  vdsat   -294.2968m  -47.2364m   43.1289m   41.6854m  -47.4609m  -47.4551m
  vod     -305.2465m  394.7520m -285.6843m -313.4126m  169.0967m  169.3197m
  beta     201.1205u  184.4605u    1.4141m    2.0781m  304.7957u  304.7939u
  gam eff  400.0000m  400.0000m  400.0000m  400.0000m  400.0000m  400.0000m
  gm         5.3237n  686.3504f   59.9760n   56.3924n  324.2666n  322.5529n
  gds       46.8599u  526.9161p   18.1612n   17.2752n  128.8555n  128.1705n
  gmb        1.3654n  154.8113f   10.6553n   13.2782n   63.2486n   62.9226n
  cdtot     32.2920a   23.7198a   21.1988a   19.0388a   18.2193a   18.2191a
  cgtot     24.9836a   16.9097a   17.9575a   14.3174a   13.9616a   13.9595a
  cstot     35.5241a   33.3013a   31.4210a   33.3262a   33.3084a   33.3064a
  cbtot     42.8404a   42.9217a   36.8844a   40.9902a   40.3763a   40.3765a
  cgs       14.5091a    7.7525a    9.0690a    7.7775a    7.7610a    7.7590a
  cgd       10.0548a    7.7520a    7.7776a    5.0686a    4.7964a    4.7963a



 subckt   xnand2_5   xnand2_5   xnand2_6   xnand2_6   xnand2_6   xnand2_6  
 element  5:mn1      5:mn2      6:mp2      6:mp1      6:mn1      6:mn2     
 model    0:nmos     0:nmos     0:pmos     0:pmos     0:nmos     0:nmos    
 region   Linear     Linear     Subth      Subth      Linear     Linear    
  id        26.2205n   26.2411n  -13.0833n  -13.1404n   26.2354n   26.2561n
  ibs     -212.8123a  3.083e-25 -6.655e-25 -6.655e-25 -212.8769a  3.093e-25
  ibd     -589.6592a -295.2739a  709.5743f  709.5743f -590.0160a -295.3634a
  vgs      699.7857m  699.7754m  -48.1950u -224.5726u  699.5626m  699.9518m
  vds      212.6409u  212.7914u -699.5743m -699.5743m  212.8343u  212.8560u
  vbs     -212.7914u    0.         0.         0.      -212.8560u    0.     
  vth      450.7140m  450.6742m -169.3214m -169.3214m  450.7140m  450.6742m
  vdsat    208.4750m  208.4911m  -47.4563m  -47.4609m  208.3316m  208.6046m
  vod      249.0717m  249.1012m  169.2732m  169.0968m  248.8486m  249.2776m
  beta       1.2073m    1.2074m  304.7942u  304.7956u    1.2076m    1.2072m
  gam eff  400.0000m  400.0000m  400.0000m  400.0000m  400.0000m  400.0000m
  gm        39.7145n   39.7363n  322.9099n  324.2658n   39.7974n   39.7115n
  gds      123.2783u  123.2879u  128.3132n  128.8552n  123.2365u  123.3208u
  gmb       11.6118n   11.6201n   62.9905n   63.2484n   11.6312n   11.6166n
  cdtot     32.4512a   32.4527a   18.2191a   18.2193a   32.4477a   32.4554a
  cgtot     25.0676a   25.0677a   13.9600a   13.9616a   25.0668a   25.0683a
  cstot     35.4816a   35.4833a   33.3068a   33.3084a   35.4828a   35.4824a
  cbtot     42.8788a   42.8819a   40.3764a   40.3763a   42.8788a   42.8819a
  cgs       14.4157a   14.4157a    7.7594a    7.7610a   14.4154a   14.4159a
  cgd       10.2870a   10.2871a    4.7963a    4.7964a   10.2863a   10.2876a



 ******
 * eda yan

 ****** transient analysis tnom=  25.000 temp=  25.000 ******
x

 time         voltage    voltage   
             n22        n23        
    0.        425.4323u  425.6903u 
   10.00000f  425.4323u  425.6903u 
   20.00000f  425.4323u  425.6903u 
   30.00000f  425.4323u  425.6903u 
   40.00000f  425.4323u  425.6903u 
   50.00000f  425.4323u  425.6903u 
   60.00000f  425.4323u  425.6903u 
   70.00000f  425.4323u  425.6903u 
   80.00000f  425.4323u  425.6903u 
   90.00000f  425.4323u  425.6903u 
  100.00000f  425.4323u  425.6903u 
  110.00000f  425.4323u  425.6903u 
  120.00000f  425.4323u  425.6903u 
  130.00000f  425.4323u  425.6903u 
  140.00000f  425.4323u  425.6903u 
  150.00000f  425.4323u  425.6903u 
  160.00000f  425.4323u  425.6903u 
  170.00000f  425.4323u  425.6903u 
  180.00000f  425.4323u  425.6903u 
  190.00000f  425.4323u  425.6903u 
  200.00000f  425.4323u  425.6903u 
  210.00000f  425.4323u  425.6903u 
  220.00000f  425.4323u  425.6903u 
  230.00000f  425.4323u  425.6903u 
  240.00000f  425.4323u  425.6903u 
  250.00000f  425.4323u  425.6903u 
  260.00000f  425.4323u  425.6903u 
  270.00000f  425.4323u  425.6903u 
  280.00000f  425.4323u  425.6903u 
  290.00000f  425.4323u  425.6903u 
  300.00000f  425.4323u  425.6903u 
  310.00000f  425.4323u  425.6903u 
  320.00000f  425.4323u  425.6903u 
  330.00000f  425.4323u  425.6903u 
  340.00000f  425.4323u  425.6903u 
  350.00000f  425.4323u  425.6903u 
  360.00000f  425.4323u  425.6903u 
  370.00000f  425.4323u  425.6903u 
  380.00000f  425.4323u  425.6903u 
  390.00000f  425.4323u  425.6903u 
  400.00000f  425.4323u  425.6903u 
  410.00000f  425.4323u  425.6903u 
  420.00000f  425.4323u  425.6903u 
  430.00000f  425.4323u  425.6903u 
  440.00000f  425.4323u  425.6903u 
  450.00000f  425.4323u  425.6903u 
  460.00000f  425.4323u  425.6903u 
  470.00000f  425.4323u  425.6903u 
  480.00000f  425.4323u  425.6903u 
  490.00000f  425.4323u  425.6903u 
  500.00000f  425.4323u  425.6903u 
  510.00000f  425.4323u  425.6903u 
  520.00000f  425.4323u  425.6903u 
  530.00000f  425.4323u  425.6903u 
  540.00000f  425.4323u  425.6903u 
  550.00000f  425.4323u  425.6903u 
  560.00000f  425.4323u  425.6903u 
  570.00000f  425.4323u  425.6903u 
  580.00000f  425.4323u  425.6903u 
  590.00000f  425.4323u  425.6903u 
  600.00000f  425.4323u  425.6903u 
  610.00000f  425.4323u  425.6903u 
  620.00000f  425.4323u  425.6903u 
  630.00000f  425.4323u  425.6903u 
  640.00000f  425.4323u  425.6903u 
  650.00000f  425.4323u  425.6903u 
  660.00000f  425.4323u  425.6903u 
  670.00000f  425.4323u  425.6903u 
  680.00000f  425.4323u  425.6903u 
  690.00000f  425.4323u  425.6903u 
  700.00000f  425.4323u  425.6903u 
  710.00000f  425.4323u  425.6903u 
  720.00000f  425.4323u  425.6903u 
  730.00000f  425.4323u  425.6903u 
  740.00000f  425.4323u  425.6903u 
  750.00000f  425.4323u  425.6903u 
  760.00000f  425.4323u  425.6903u 
  770.00000f  425.4323u  425.6903u 
  780.00000f  425.4323u  425.6903u 
  790.00000f  425.4323u  425.6903u 
  800.00000f  425.4323u  425.6903u 
  810.00000f  425.4323u  425.6903u 
  820.00000f  425.4323u  425.6903u 
  830.00000f  425.4323u  425.6903u 
  840.00000f  425.4323u  425.6903u 
  850.00000f  425.4323u  425.6903u 
  860.00000f  425.4323u  425.6903u 
  870.00000f  425.4323u  425.6903u 
  880.00000f  425.4323u  425.6903u 
  890.00000f  425.4323u  425.6903u 
  900.00000f  425.4323u  425.6903u 
  910.00000f  425.4323u  425.6903u 
  920.00000f  425.4323u  425.6903u 
  930.00000f  425.4323u  425.6903u 
  940.00000f  425.4323u  425.6903u 
  950.00000f  425.4323u  425.6903u 
  960.00000f  425.4323u  425.6903u 
  970.00000f  425.4323u  425.6903u 
  980.00000f  425.4323u  425.6903u 
  990.00000f  425.4323u  425.6903u 
    1.00000p  425.4323u  425.6903u 
    1.01000p  431.5532u  430.0529u 
    1.02000p  437.6741u  434.4154u 
    1.03000p  443.7951u  438.7779u 
    1.04000p  449.9160u  443.1405u 
    1.05000p  456.0369u  447.5030u 
    1.06000p  462.1578u  451.8655u 
    1.07000p  468.2788u  456.2280u 
    1.08000p  474.3997u  460.5906u 
    1.09000p  480.5206u  464.9531u 
    1.10000p  486.6416u  469.3156u 
    1.11000p  492.7625u  473.6782u 
    1.12000p  498.8834u  478.0407u 
    1.13000p  505.0044u  482.4032u 
    1.14000p  511.1253u  486.7658u 
    1.15000p  517.2462u  491.1283u 
    1.16000p  523.3671u  495.4908u 
    1.17000p  529.4881u  499.8534u 
    1.18000p  535.6090u  504.2159u 
    1.19000p  541.7299u  508.5784u 
    1.20000p  547.8509u  512.9410u 
    1.21000p  553.9718u  517.3035u 
    1.22000p  560.0927u  521.6660u 
    1.23000p  566.2136u  526.0286u 
    1.24000p  572.3346u  530.3911u 
    1.25000p  578.4555u  534.7536u 
    1.26000p  584.5764u  539.1161u 
    1.27000p  590.6974u  543.4787u 
    1.28000p  596.8183u  547.8412u 
    1.29000p  602.9392u  552.2037u 
    1.30000p  609.0601u  556.5663u 
    1.31000p  615.1811u  560.9288u 
    1.32000p  621.3020u  565.2913u 
    1.33000p  627.4229u  569.6539u 
    1.34000p  633.5439u  574.0164u 
    1.35000p  639.6648u  578.3789u 
    1.36000p  645.7857u  582.7415u 
    1.37000p  651.9067u  587.1040u 
    1.38000p  658.0276u  591.4665u 
    1.39000p  664.1485u  595.8291u 
    1.40000p  670.2694u  600.1916u 
    1.41000p  676.3904u  604.5541u 
    1.42000p  682.5113u  608.9166u 
    1.43000p  688.6322u  613.2792u 
    1.44000p  694.7532u  617.6417u 
    1.45000p  700.8741u  622.0042u 
    1.46000p  706.9950u  626.3668u 
    1.47000p  713.1159u  630.7293u 
    1.48000p  719.2369u  635.0918u 
    1.49000p  725.3578u  639.4544u 
    1.50000p  731.4787u  643.8169u 
    1.51000p  737.5997u  648.1794u 
    1.52000p  743.7206u  652.5420u 
    1.53000p  749.8415u  656.9045u 
    1.54000p  755.9624u  661.2670u 
    1.55000p  762.0834u  665.6296u 
    1.56000p  768.2043u  669.9921u 
    1.57000p  774.3252u  674.3546u 
    1.58000p  780.4462u  678.7172u 
    1.59000p  786.5671u  683.0797u 
    1.60000p  792.6880u  687.4422u 
    1.61000p  798.8090u  691.8047u 
    1.62000p  804.9299u  696.1673u 
    1.63000p  811.0508u  700.5298u 
    1.64000p  817.1717u  704.8923u 
    1.65000p  823.2927u  709.2549u 
    1.66000p  829.4136u  713.6174u 
    1.67000p  835.5345u  717.9799u 
    1.68000p  841.6555u  722.3425u 
    1.69000p  847.7764u  726.7050u 
    1.70000p  853.8973u  731.0675u 
    1.71000p  860.0182u  735.4301u 
    1.72000p  866.1392u  739.7926u 
    1.73000p  872.2601u  744.1551u 
    1.74000p  878.3810u  748.5177u 
    1.75000p  884.5020u  752.8802u 
    1.76000p  890.6229u  757.2427u 
    1.77000p  896.7438u  761.6053u 
    1.78000p  902.8647u  765.9678u 
    1.79000p  908.9857u  770.3303u 
    1.80000p  915.1066u  774.6928u 
    1.81000p  921.2275u  779.0554u 
    1.82000p  927.3485u  783.4179u 
    1.83000p  933.4694u  787.7804u 
    1.84000p  939.5903u  792.1430u 
    1.85000p  945.7113u  796.5055u 
    1.86000p  951.8322u  800.8680u 
    1.87000p  957.9531u  805.2306u 
    1.88000p  964.0740u  809.5931u 
    1.89000p  970.1950u  813.9556u 
    1.90000p  976.3159u  818.3182u 
    1.91000p  982.4368u  822.6807u 
    1.92000p  988.5578u  827.0432u 
    1.93000p  994.6787u  831.4058u 
    1.94000p    1.0008m  835.7683u 
    1.95000p    1.0069m  840.1308u 
    1.96000p    1.0130m  844.4934u 
    1.97000p    1.0192m  848.8559u 
    1.98000p    1.0253m  853.2184u 
    1.99000p    1.0314m  857.5809u 
    2.00000p    1.0375m  861.9435u 
    2.01000p    1.0428m  865.9420u 
    2.02000p    1.0480m  869.9406u 
    2.03000p    1.0532m  873.9391u 
    2.04000p    1.0584m  877.9377u 
    2.05000p    1.0637m  881.9363u 
    2.06000p    1.0689m  885.9348u 
    2.07000p    1.0741m  889.9334u 
    2.08000p    1.0794m  893.9319u 
    2.09000p    1.0846m  897.9305u 
    2.10000p    1.0898m  901.9290u 
    2.11000p    1.0951m  905.9276u 
    2.12000p    1.1003m  909.9262u 
    2.13000p    1.1055m  913.9247u 
    2.14000p    1.1108m  917.9233u 
    2.15000p    1.1160m  921.9218u 
    2.16000p    1.1212m  925.9204u 
    2.17000p    1.1265m  929.9189u 
    2.18000p    1.1317m  933.9175u 
    2.19000p    1.1369m  937.9161u 
    2.20000p    1.1421m  941.9146u 
    2.21000p    1.1474m  945.9132u 
    2.22000p    1.1526m  949.9117u 
    2.23000p    1.1578m  953.9103u 
    2.24000p    1.1631m  957.9089u 
    2.25000p    1.1683m  961.9074u 
    2.26000p    1.1735m  965.9060u 
    2.27000p    1.1788m  969.9045u 
    2.28000p    1.1840m  973.9031u 
    2.29000p    1.1892m  977.9016u 
    2.30000p    1.1945m  981.9002u 
    2.31000p    1.1997m  985.8988u 
    2.32000p    1.2049m  989.8973u 
    2.33000p    1.2102m  993.8959u 
    2.34000p    1.2154m  997.8944u 
    2.35000p    1.2206m    1.0019m 
    2.36000p    1.2251m    1.0054m 
    2.37000p    1.2270m    1.0072m 
