Using: /opt/synopsys/hspice/O-2018.09-SP2-2/hspice/linux64/hspice c17.sp
 ****** HSPICE -- O-2018.09-SP2-2 linux64 (May  9 2019) ******                  
  Copyright (c) 1986 - 2020 by Synopsys, Inc. All Rights Reserved.              
  This software and the associated documentation are proprietary
  to Synopsys, Inc. This software may only be used in accordance
  with the terms and conditions of a written license agreement with
  Synopsys, Inc. All other use, reproduction, or distribution of
  this software is strictly prohibited.
  Input File: c17.sp                                                            
  Command line options: /opt/synopsys/hspice/O-2018.09-SP2-2/hspice/linux64/hspice c17.sp
  Start time: Tue May 12 02:05:40 2020
 lic:  
 lic: FLEXlm: SDK_11.7.3 
 lic: USER:   mitsushij            HOSTNAME: sahand 
 lic: HOSTID: "80c16e72eecb"       PID:      76436 
 lic: Using FLEXlm license file: 
 lic: 1720@ics-lic2.usc.edu 
 lic: Checkout 1 hspice 
 lic: License/Maintenance for hspice will expire on 30-jun-2021/2019.06 
 lic: 1(in_use)/50(total) FLOATING license(s) on SERVER 1720@ics-lic2.usc.edu 
 lic:   
1****** HSPICE -- O-2018.09-SP2-2 linux64 (May  9 2019) ******                  
 ******  
 * eda yan

 ****** circuit name directory
 circuit number to circuit name directory
   number circuitname                     definition         multiplier
        0 main circuit
        1 xnand2_1.                       nand2              1.00 
        2 xnand2_2.                       nand2              1.00 
        3 xnand2_3.                       nand2              1.00 
        4 xnand2_4.                       nand2              1.00 
        5 xnand2_5.                       nand2              1.00 
        6 xnand2_6.                       nand2              1.00 
  **info** (c17.sp:24) DC voltage reset to initial transient source value in source 0:vn1. new dc=0.0000D+00
  **warning** (nmos:mn1 (./gate_inventory_gen.sp:18)) Warning:  Acde = 0.231197 may be too small in BSIM4 model with w=3.2e-08 l=1.6e-08.
  

  **warning** the following singular supplies were terminated to 1 meg resistor 
          supply       node1            node2
(c17.sp:10)vlo                     0:lo               defined in subckt 0                     0:0                defined in subckt 0               
      

Element variations(Local):   element              parameter
 **info** set option symb=1 internally to help for convergence.
 *****************************************************************
 ******  option summary
 ******
 runlvl  = 3         bypass  = 2.0000    
 **info** dc convergence successful at Newton-Raphson method 
 ******  
 * eda yan

 ****** operating point information tnom=  25.000 temp=  25.000 ******
 ****** operating point status is all       simulation time is     0.     
    node    =voltage      node    =voltage      node    =voltage

 +0:hi      = 900.0000m 0:lo      =   0.      0:n1      =   0.     
 +0:n10     = 899.9938m 0:n11     = 899.9939m 0:n16     = 899.9799m
 +0:n19     = 899.9891m 0:n2      =   0.      0:n22     =   5.2101u
 +0:n23     =   5.2098u 0:n3      =   0.      0:n6      =   0.     
 +0:n7      =   0.      1:n1      =  52.9516m 2:n1      =  52.9516m
 +3:n1      =   1.2445u 4:n1      = 622.4075m 5:n1      =   3.8286u
 +6:n1      =   3.8283u


 **** voltage sources

 subckt                                                                    
 element  0:vhi      0:vlo      0:vn1      0:vn2      0:vn3      0:vn6     
  volts    900.0000m    0.         0.         0.         0.         0.     
  current -902.6514p    0.        41.8998p   41.9000p   83.7996p   41.8998p
  power    812.3863p    0.         0.         0.         0.         0.     

 subckt             
 element  0:vn7     
  volts      0.     
  current   41.8998p
  power      0.     

     total voltage source power dissipation=  812.3863p       watts




 **** mosfets


 subckt   xnand2_1   xnand2_1   xnand2_1   xnand2_1   xnand2_2   xnand2_2  
 element  1:mp2      1:mp1      1:mn1      1:mn2      2:mp2      2:mp1     
 model    0:pmos     0:pmos     0:nmos     0:nmos     0:pmos     0:pmos    
 region   Linear     Linear     Cutoff     Cutoff     Linear     Linear    
  id       -85.3043p  -85.3043p  127.0803f   12.4482f  -84.3225p  -84.3225p
  ibs     -1.177e-26 -1.177e-26  -52.9538f  5.783e-26 -1.177e-26 -1.177e-26
  ibd        8.5666a    8.5666a -909.9938f  -61.6783f    8.4680a    8.4680a
  vgs     -900.0000m -900.0000m  -52.9516m    0.      -900.0000m -900.0000m
  vds       -6.1667u   -6.1667u  847.0423m   52.9516m   -6.0957u   -6.0957u
  vbs        0.         0.       -52.9516m    0.         0.         0.     
  vth     -681.8334m -681.8334m  544.9000m  671.5852m -681.8334m -681.8334m
  vdsat   -223.2405m -223.2405m   43.2181m   43.7698m -223.2404m -223.2404m
  vod     -218.1666m -218.1666m -597.8516m -671.5852m -218.1666m -218.1666m
  beta      77.4017u   77.4017u  528.9543u  423.7186u   77.4017u   77.4017u
  gam eff  400.0000m  400.0000m  400.0000m  400.0000m  400.0000m  400.0000m
  gm       402.3646p  402.3646p    3.4571p  335.8388f  397.7339p  397.7339p
  gds       13.8331u   13.8331u  697.6665f  120.7312f   13.8331u   13.8331u
  gmb       91.2741p   91.2741p    1.0001p  105.2450f   90.2237p   90.2237p
  cdtot     33.2543a   33.2543a   17.5082a   22.8839a   33.2543a   33.2543a
  cgtot     28.4283a   28.4283a   15.1530a   18.2494a   28.4283a   28.4283a
  cstot     37.1828a   37.1828a   32.3045a   33.2133a   37.1828a   37.1828a
  cbtot     43.9374a   43.9374a   41.4635a   44.6516a   43.9374a   43.9374a
  cgs       17.0091a   17.0091a    7.1830a    7.6646a   17.0091a   17.0091a
  cgd       10.6808a   10.6808a    4.5682a    7.1829a   10.6808a   10.6808a



 subckt   xnand2_2   xnand2_2   xnand2_3   xnand2_3   xnand2_3   xnand2_3  
 element  2:mn1      2:mn2      3:mp2      3:mp1      3:mn1      3:mn2     
 model    0:nmos     0:nmos     0:pmos     0:pmos     0:nmos     0:nmos    
 region   Cutoff     Cutoff     Cutoff     Linear     Cutoff     Linear    
  id       127.0803f   12.4482f -3.751e-19 -278.2718p    1.0810p   63.9329p
  ibs      -52.9538f  5.783e-26  2.221e-28 -1.188e-26   -1.2447a  2.022e-26
  ibd     -909.9939f  -61.6783f   27.9434a   27.9434a -909.9799f   -1.7290a
  vgs      -52.9516m    0.        -6.0957u -900.0000m   -1.2445u  899.9939m
  vds      847.0423m   52.9516m  -20.1165u  -20.1165u  899.9786m    1.2445u
  vbs      -52.9516m    0.         0.         0.        -1.2445u    0.     
  vth      544.9000m  671.5852m -681.8296m -681.8296m  524.9596m  680.7513m
  vdsat     43.2181m   43.7698m  -46.7962m -223.2438m   43.0662m  196.1743m
  vod     -597.8516m -671.5852m  681.8235m -218.1704m -524.9608m  219.2426m
  beta     528.9543u  423.7186u   69.2338u   77.4020u  548.3096u  353.0839u
  gam eff  400.0000m  400.0000m  400.0000m  400.0000m  400.0000m  400.0000m
  gm         3.4571p  335.8388f   10.3987a    1.3126n   29.1416p  192.2466p
  gds      697.6666f  120.7312f   18.6445f   13.8328u    5.9843p   51.3703u
  gmb        1.0001p  105.2450f    3.1008a  297.7462p    8.4303p   53.3533p
  cdtot     17.5082a   22.8839a   23.6243a   33.2522a   17.5083a   36.1271a
  cgtot     15.1530a   18.2494a   18.2982a   28.4282a   15.6346a   30.4146a
  cstot     32.3045a   33.2133a   33.2054a   37.1839a   33.2133a   36.8387a
  cbtot     41.4635a   44.6516a   44.5018a   43.9372a   41.8907a   44.3134a
  cgs        7.1830a    7.6646a    7.6567a   17.0097a    7.6646a   17.7510a
  cgd        4.5682a    7.1829a    7.6564a   10.6801a    4.5682a   12.0534a



 subckt   xnand2_4   xnand2_4   xnand2_4   xnand2_4   xnand2_5   xnand2_5  
 element  4:mp2      4:mp1      4:mn1      4:mn2      5:mp2      5:mp1     
 model    0:pmos     0:pmos     0:nmos     0:nmos     0:pmos     0:pmos    
 region   Linear     Cutoff     Cutoff     Cutoff     Cutoff     Cutoff    
  id      -151.0368p -2.036e-19    1.5016p  246.8030f   -1.1823p   -1.1818p
  ibs     -1.188e-26  2.221e-28 -622.4100f  5.929e-25 -8.532e-25 -8.532e-25
  ibd       15.1674a   15.1674a -909.9891f -632.4075f  909.9948f  909.9948f
  vgs     -900.0000m   -6.0957u  277.5864m    0.       -20.1165u   -6.1667u
  vds      -10.9185u  -10.9185u  277.5816m  622.4075m -899.9948m -899.9948m
  vbs        0.         0.      -622.4075m    0.         0.         0.     
  vth     -681.8321m -681.8321m  744.4977m  573.0087m -436.4074m -436.4074m
  vdsat   -223.2416m  -46.7962m   44.1132m   43.3166m  -46.4773m  -46.4773m
  vod     -218.1679m  681.8260m -466.9112m -573.0087m  436.3873m  436.4012m
  beta      77.4018u   69.2336u  375.1399u  503.0351u   98.7210u   98.7210u
  gam eff  400.0000m  400.0000m  400.0000m  400.0000m  400.0000m  400.0000m
  gm       712.4138p    5.6442a   43.4967p    6.6561p   32.7275p   32.7149p
  gds       13.8330u   18.6459f    8.0937p    1.2688p   12.0541p   12.0495p
  gmb      161.6068p    1.6831a    8.6160p    1.9778p    8.4810p    8.4778p
  cdtot     33.2536a   23.6245a   20.6046a   18.4172a   17.5003a   17.5003a
  cgtot     28.4283a   18.2983a   19.1543a   15.8553a   15.2021a   15.2020a
  cstot     37.1832a   33.2054a   31.0248a   33.2133a   33.2055a   33.2054a
  cbtot     43.9373a   44.5019a   37.0157a   42.5790a   41.4739a   41.4740a
  cgs       17.0093a    7.6567a    9.2195a    7.6646a    7.6568a    7.6567a
  cgd       10.6806a    7.6565a    7.6646a    4.7888a    4.5602a    4.5602a



 subckt   xnand2_5   xnand2_5   xnand2_6   xnand2_6   xnand2_6   xnand2_6  
 element  5:mn1      5:mn2      6:mp2      6:mp1      6:mn1      6:mn2     
 model    0:nmos     0:nmos     0:pmos     0:pmos     0:nmos     0:nmos    
 region   Linear     Linear     Cutoff     Cutoff     Linear     Linear    
  id        70.9710p  196.6656p   -1.1820p   -1.1823p   70.9640p  196.6562p
  ibs       -3.8289a  2.021e-26 -8.532e-25 -8.532e-25   -3.8287a  2.022e-26
  ibd       -7.2379a   -5.3186a  909.9948f  909.9948f   -7.2374a   -5.3182a
  vgs      899.9900m  899.9799m  -10.9185u  -20.1165u  899.9761m  899.9891m
  vds        1.3816u    3.8286u -899.9948m -899.9948m    1.3815u    3.8283u
  vbs       -3.8286u    0.         0.         0.        -3.8283u    0.     
  vth      680.7521m  680.7508m -436.4074m -436.4074m  680.7521m  680.7508m
  vdsat    196.1713m  196.1652m  -46.4773m  -46.4773m  196.1620m  196.1714m
  vod      219.2380m  219.2290m  436.3965m  436.3873m  219.2240m  219.2382m
  beta     353.0847u  353.0878u   98.7210u   98.7210u  353.0885u  353.0853u
  gam eff  400.0000m  400.0000m  400.0000m  400.0000m  400.0000m  400.0000m
  gm       213.4167p  591.4319p   32.7192p   32.7275p  213.4152p  591.3675p
  gds       51.3695u   51.3677u   12.0510p   12.0541p   51.3673u   51.3691u
  gmb       59.2280p  164.1333p    8.4789p    8.4810p   59.2262p  164.1178p
  cdtot     36.1270a   36.1263a   17.5003a   17.5003a   36.1267a   36.1265a
  cgtot     30.4146a   30.4145a   15.2021a   15.2021a   30.4145a   30.4145a
  cstot     36.8387a   36.8391a   33.2055a   33.2055a   36.8388a   36.8390a
  cbtot     44.3133a   44.3134a   41.4740a   41.4739a   44.3133a   44.3134a
  cgs       17.7510a   17.7511a    7.6567a    7.6568a   17.7510a   17.7511a
  cgd       12.0534a   12.0532a    4.5602a    4.5602a   12.0533a   12.0532a



 ******
 * eda yan

 ****** transient analysis tnom=  25.000 temp=  25.000 ******
x

 time         voltage    voltage   
             n22        n23        
    0.          5.2101u    5.2098u 
  100.00000f    5.2101u    5.2098u 
  200.00000f    5.2101u    5.2098u 
  300.00000f    5.2101u    5.2098u 
  400.00000f    5.2101u    5.2098u 
  500.00000f    5.2101u    5.2098u 
  600.00000f    5.2101u    5.2098u 
  700.00000f    5.2101u    5.2098u 
  800.00000f    5.2101u    5.2098u 
  900.00000f    5.2101u    5.2098u 
    1.00000p    5.2101u    5.2098u 
    1.10000p  119.2603u   75.9003u 
    1.20000p  233.3104u  146.5908u 
    1.30000p  347.3605u  217.2812u 
    1.40000p  461.4107u  287.9717u 
    1.50000p  575.4608u  358.6622u 
    1.60000p  689.5110u  429.3527u 
    1.70000p  803.5611u  500.0432u 
    1.80000p  917.6112u  570.7337u 
    1.90000p    1.0317m  641.4242u 
    2.00000p    1.1457m  712.1147u 
    2.10000p    1.2553m  782.3082u 
    2.20000p    1.3649m  852.5018u 
    2.30000p    1.4745m  922.6953u 
    2.40000p    1.5841m  992.8889u 
    2.50000p    1.6759m    1.0547m 
    2.60000p    1.7665m    1.1161m 
    2.70000p    1.8572m    1.1774m 
    2.80000p    1.9479m    1.2387m 
    2.90000p    2.0386m    1.3000m 
    3.00000p    2.1293m    1.3614m 
    3.10000p    2.2200m    1.4227m 
    3.20000p    2.3107m    1.4840m 
    3.30000p    2.4014m    1.5454m 
    3.40000p    2.4921m    1.6067m 
    3.50000p    2.5828m    1.6680m 
    3.60000p    2.6735m    1.7294m 
    3.70000p    2.7465m    1.7787m 
    3.80000p    2.8056m    1.8186m 
    3.90000p    2.8647m    1.8584m 
    4.00000p    2.9237m    1.8983m 
    4.10000p    2.9828m    1.9381m 
    4.20000p    3.0419m    1.9780m 
    4.30000p    3.1009m    2.0178m 
    4.40000p    3.1600m    2.0577m 
    4.50000p    3.2190m    2.0975m 
    4.60000p    3.2781m    2.1374m 
    4.70000p    3.3372m    2.1772m 
    4.80000p    3.3962m    2.2171m 
    4.90000p    3.4553m    2.2569m 
    5.00000p    3.5144m    2.2967m 
    5.10000p    3.5734m    2.3366m 
    5.20000p    3.6325m    2.3764m 
    5.30000p    3.6916m    2.4163m 
    5.40000p    3.7506m    2.4561m 
    5.50000p    3.8097m    2.4960m 
    5.60000p    3.8688m    2.5358m 
    5.70000p    3.9278m    2.5757m 
    5.80000p    3.9869m    2.6155m 
    5.90000p    4.0459m    2.6554m 
    6.00000p    4.1050m    2.6952m 
    6.10000p    4.1641m    2.7351m 
    6.20000p    4.2231m    2.7749m 
    6.30000p    4.2822m    2.8148m 
    6.40000p    4.3413m    2.8546m 
    6.50000p    4.4003m    2.8945m 
    6.60000p    4.4594m    2.9343m 
    6.70000p    4.5185m    2.9741m 
    6.80000p    4.5775m    3.0140m 
    6.90000p    4.6366m    3.0538m 
    7.00000p    4.6956m    3.0937m 
    7.10000p    4.7547m    3.1335m 
    7.20000p    4.8138m    3.1734m 
    7.30000p    4.8728m    3.2132m 
    7.40000p    4.9319m    3.2531m 
    7.50000p    4.9910m    3.2929m 
    7.60000p    5.0500m    3.3328m 
    7.70000p    5.0849m    3.3522m 
    7.80000p    5.1177m    3.3699m 
    7.90000p    5.1505m    3.3875m 
    8.00000p    5.1833m    3.4052m 
    8.10000p    5.2161m    3.4228m 
    8.20000p    5.2489m    3.4405m 
    8.30000p    5.2817m    3.4582m 
    8.40000p    5.3145m    3.4758m 
    8.50000p    5.3473m    3.4935m 
    8.60000p    5.3801m    3.5111m 
    8.70000p    5.4129m    3.5288m 
    8.80000p    5.4457m    3.5465m 
    8.90000p    5.4785m    3.5641m 
    9.00000p    5.5113m    3.5818m 
    9.10000p    5.5441m    3.5994m 
    9.20000p    5.5769m    3.6171m 
    9.30000p    5.6097m    3.6348m 
    9.40000p    5.6425m    3.6524m 
    9.50000p    5.6753m    3.6701m 
    9.60000p    5.7081m    3.6877m 
    9.70000p    5.7409m    3.7054m 
    9.80000p    5.7737m    3.7231m 
    9.90000p    5.8065m    3.7407m 
   10.00000p    5.8393m    3.7584m 
   10.10000p    5.8721m    3.7760m 
   10.20000p    5.9049m    3.7937m 
   10.30000p    5.9377m    3.8113m 
   10.40000p    5.9705m    3.8290m 
   10.50000p    6.0033m    3.8467m 
   10.60000p    6.0361m    3.8643m 
   10.70000p    6.0689m    3.8820m 
   10.80000p    6.1017m    3.8996m 
   10.90000p    6.1345m    3.9173m 
   11.00000p    6.1673m    3.9350m 
   11.10000p    6.2001m    3.9526m 
   11.20000p    6.2329m    3.9703m 
   11.30000p    6.2657m    3.9879m 
   11.40000p    6.2957m    4.0013m 
   11.50000p    6.2972m    3.9701m 
   11.60000p    6.2986m    3.9390m 
   11.70000p    6.3001m    3.9079m 
   11.80000p    6.3015m    3.8768m 
   11.90000p    6.3030m    3.8457m 
   12.00000p    6.3044m    3.8146m 
   12.10000p    6.3059m    3.7835m 
   12.20000p    6.3073m    3.7523m 
   12.30000p    6.3088m    3.7212m 
   12.40000p    6.3103m    3.6901m 
   12.50000p    6.3117m    3.6590m 
   12.60000p    6.3132m    3.6279m 
   12.70000p    6.3146m    3.5968m 
   12.80000p    6.3161m    3.5657m 
   12.90000p    6.3175m    3.5345m 
   13.00000p    6.3190m    3.5034m 
   13.10000p    6.3205m    3.4723m 
   13.20000p    6.3219m    3.4412m 
   13.30000p    6.3234m    3.4101m 
   13.40000p    6.3248m    3.3790m 
   13.50000p    6.3263m    3.3479m 
   13.60000p    6.3277m    3.3167m 
   13.70000p    6.3292m    3.2856m 
   13.80000p    6.3306m    3.2545m 
   13.90000p    6.3321m    3.2234m 
   14.00000p    6.3336m    3.1923m 
   14.10000p    6.3350m    3.1612m 
   14.20000p    6.3365m    3.1301m 
   14.30000p    6.3379m    3.0990m 
   14.40000p    6.3394m    3.0678m 
   14.50000p    6.3408m    3.0367m 
   14.60000p    6.3423m    3.0056m 
   14.70000p    6.3437m    2.9745m 
   14.80000p    6.3452m    2.9434m 
   14.90000p    6.3467m    2.9123m 
   15.00000p    6.3481m    2.8812m 
   15.10000p    6.3496m    2.8500m 
   15.20000p    6.3510m    2.8189m 
   15.30000p    6.3525m    2.7878m 
   15.40000p    6.3539m    2.7567m 
   15.50000p    6.3554m    2.7256m 
   15.60000p    6.3569m    2.6945m 
   15.70000p    6.3583m    2.6634m 
   15.80000p    6.3598m    2.6322m 
   15.90000p    6.3612m    2.6011m 
   16.00000p    6.3627m    2.5700m 
   16.10000p    6.3641m    2.5389m 
   16.20000p    6.3656m    2.5078m 
   16.30000p    6.3670m    2.4767m 
   16.40000p    6.3685m    2.4456m 
   16.50000p    6.3700m    2.4145m 
   16.60000p    6.3714m    2.3833m 
   16.70000p    6.3729m    2.3522m 
   16.80000p    6.3743m    2.3211m 
   16.90000p    6.3758m    2.2900m 
   17.00000p    6.3772m    2.2589m 
   17.10000p    6.3787m    2.2278m 
   17.20000p    6.3801m    2.1967m 
   17.30000p    6.3816m    2.1655m 
   17.40000p    6.3831m    2.1344m 
   17.50000p    6.3845m    2.1033m 
   17.60000p    6.3860m    2.0722m 
   17.70000p    6.3874m    2.0411m 
   17.80000p    6.3889m    2.0100m 
   17.90000p    6.3903m    1.9789m 
   18.00000p    6.3918m    1.9477m 
   18.10000p    6.3933m    1.9166m 
   18.20000p    6.3576m    1.8183m 
   18.30000p    6.3074m    1.6938m 
   18.40000p    6.2572m    1.5693m 
   18.50000p    6.2070m    1.4447m 
   18.60000p    6.1568m    1.3202m 
   18.70000p    6.1067m    1.1957m 
   18.80000p    6.0565m    1.0712m 
   18.90000p    6.0063m  946.6416u 
   19.00000p    5.9561m  822.1180u 
   19.10000p    5.9059m  697.5944u 
   19.20000p    5.8558m  573.0708u 
   19.30000p    5.8056m  448.5473u 
   19.40000p    5.7554m  324.0237u 
   19.50000p    5.7052m  199.5001u 
   19.60000p    5.6550m   74.9765u 
   19.70000p    5.6048m  -49.5471u 
   19.80000p    5.5547m -174.0707u 
   19.90000p    5.5045m -298.5943u 
   20.00000p    5.4543m -423.1179u 
   20.10000p    5.4041m -547.6415u 
   20.20000p    5.3539m -672.1651u 
   20.30000p    5.3038m -796.6887u 
   20.40000p    5.2536m -921.2123u 
   20.50000p    5.2034m   -1.0457m 
   20.60000p    5.1532m   -1.1703m 
   20.70000p    5.1030m   -1.2948m 
   20.80000p    5.0529m   -1.4193m 
   20.90000p    5.0027m   -1.5438m 
   21.00000p    4.9525m   -1.6684m 
   21.10000p    4.7662m   -1.8974m 
   21.20000p    4.5800m   -2.1264m 
   21.30000p    4.3937m   -2.3554m 
   21.40000p    4.2074m   -2.5844m 
   21.50000p    4.0212m   -2.8134m 
   21.60000p    3.8365m   -3.0382m 
   21.70000p    3.6522m   -3.2621m 
   21.80000p    3.4679m   -3.4860m 
   21.90000p    3.2836m   -3.7099m 
   22.00000p    3.0992m   -3.9338m 
   22.10000p    2.9230m   -4.1384m 
   22.20000p    2.7538m   -4.3262m 
   22.30000p    2.5845m   -4.5140m 
   22.40000p    2.4153m   -4.7018m 
   22.50000p    2.2460m   -4.8895m 
   22.60000p    2.0768m   -5.0773m 
   22.70000p    1.9076m   -5.2651m 
   22.80000p    1.7383m   -5.4529m 
   22.90000p    1.5691m   -5.6407m 
   23.00000p    1.3998m   -5.8284m 
   23.10000p    1.2306m   -6.0162m 
   23.20000p    1.0614m   -6.2040m 
   23.30000p  892.1121u   -6.3918m 
   23.40000p  722.8718u   -6.5796m 
   23.50000p  553.6314u   -6.7674m 
   23.60000p  384.3911u   -6.9551m 
   23.70000p  215.1508u   -7.1429m 
