Using: /opt/synopsys/hspice/O-2018.09-SP2-2/hspice/linux64/hspice c17.sp
 ****** HSPICE -- O-2018.09-SP2-2 linux64 (May  9 2019) ******                  
  Copyright (c) 1986 - 2020 by Synopsys, Inc. All Rights Reserved.              
  This software and the associated documentation are proprietary
  to Synopsys, Inc. This software may only be used in accordance
  with the terms and conditions of a written license agreement with
  Synopsys, Inc. All other use, reproduction, or distribution of
  this software is strictly prohibited.
  Input File: c17.sp                                                            
  Command line options: /opt/synopsys/hspice/O-2018.09-SP2-2/hspice/linux64/hspice c17.sp
  Start time: Tue May 12 01:58:16 2020
 lic:  
 lic: FLEXlm: SDK_11.7.3 
 lic: USER:   mitsushij            HOSTNAME: sahand 
 lic: HOSTID: "80c16e72eecb"       PID:      75543 
 lic: Using FLEXlm license file: 
 lic: 1720@ics-lic2.usc.edu 
 lic: Checkout 1 hspice 
 lic: License/Maintenance for hspice will expire on 30-jun-2021/2019.06 
 lic: 1(in_use)/50(total) FLOATING license(s) on SERVER 1720@ics-lic2.usc.edu 
 lic:   
1****** HSPICE -- O-2018.09-SP2-2 linux64 (May  9 2019) ******                  
 ******  
 * eda yan

 ****** circuit name directory
 circuit number to circuit name directory
   number circuitname                     definition         multiplier
        0 main circuit
        1 xnand2_1.                       nand2              1.00 
        2 xnand2_2.                       nand2              1.00 
        3 xnand2_3.                       nand2              1.00 
        4 xnand2_4.                       nand2              1.00 
        5 xnand2_5.                       nand2              1.00 
        6 xnand2_6.                       nand2              1.00 
  **info** (c17.sp:24) DC voltage reset to initial transient source value in source 0:vn1. new dc=0.0000D+00
  **warning** (nmos:mn1 (./gate_inventory_gen.sp:18)) Warning:  Acde = 0.231197 may be too small in BSIM4 model with w=3.2e-08 l=1.6e-08.
  

  **warning** the following singular supplies were terminated to 1 meg resistor 
          supply       node1            node2
(c17.sp:10)vlo                     0:lo               defined in subckt 0                     0:0                defined in subckt 0               
      

Element variations(Local):   element              parameter
 **info** set option symb=1 internally to help for convergence.
 *****************************************************************
 ******  option summary
 ******
 runlvl  = 3         bypass  = 2.0000    
 **info** dc convergence successful at Newton-Raphson method 
 ******  
 * eda yan

 ****** operating point information tnom=  25.000 temp=  25.000 ******
 ****** operating point status is all       simulation time is     0.     
    node    =voltage      node    =voltage      node    =voltage

 +0:hi      = 900.0000m 0:lo      =   0.      0:n1      =   0.     
 +0:n10     = 899.9938m 0:n11     = 899.9939m 0:n16     = 899.9799m
 +0:n19     = 899.9891m 0:n2      =   0.      0:n22     =   5.2101u
 +0:n23     =   5.2098u 0:n3      =   0.      0:n6      =   0.     
 +0:n7      =   0.      1:n1      =  52.9516m 2:n1      =  52.9516m
 +3:n1      =   1.2445u 4:n1      = 622.4075m 5:n1      =   3.8286u
 +6:n1      =   3.8283u


 **** voltage sources

 subckt                                                                    
 element  0:vhi      0:vlo      0:vn1      0:vn2      0:vn3      0:vn6     
  volts    900.0000m    0.         0.         0.         0.         0.     
  current -902.6514p    0.        41.8998p   41.9000p   83.7996p   41.8998p
  power    812.3863p    0.         0.         0.         0.         0.     

 subckt             
 element  0:vn7     
  volts      0.     
  current   41.8998p
  power      0.     

     total voltage source power dissipation=  812.3863p       watts




 **** mosfets


 subckt   xnand2_1   xnand2_1   xnand2_1   xnand2_1   xnand2_2   xnand2_2  
 element  1:mp2      1:mp1      1:mn1      1:mn2      2:mp2      2:mp1     
 model    0:pmos     0:pmos     0:nmos     0:nmos     0:pmos     0:pmos    
 region   Linear     Linear     Cutoff     Cutoff     Linear     Linear    
  id       -85.3043p  -85.3043p  127.0803f   12.4482f  -84.3225p  -84.3225p
  ibs     -1.177e-26 -1.177e-26  -52.9538f  5.783e-26 -1.177e-26 -1.177e-26
  ibd        8.5666a    8.5666a -909.9938f  -61.6783f    8.4680a    8.4680a
  vgs     -900.0000m -900.0000m  -52.9516m    0.      -900.0000m -900.0000m
  vds       -6.1667u   -6.1667u  847.0423m   52.9516m   -6.0957u   -6.0957u
  vbs        0.         0.       -52.9516m    0.         0.         0.     
  vth     -681.8334m -681.8334m  544.9000m  671.5852m -681.8334m -681.8334m
  vdsat   -223.2405m -223.2405m   43.2181m   43.7698m -223.2404m -223.2404m
  vod     -218.1666m -218.1666m -597.8516m -671.5852m -218.1666m -218.1666m
  beta      77.4017u   77.4017u  528.9543u  423.7186u   77.4017u   77.4017u
  gam eff  400.0000m  400.0000m  400.0000m  400.0000m  400.0000m  400.0000m
  gm       402.3646p  402.3646p    3.4571p  335.8388f  397.7339p  397.7339p
  gds       13.8331u   13.8331u  697.6665f  120.7312f   13.8331u   13.8331u
  gmb       91.2741p   91.2741p    1.0001p  105.2450f   90.2237p   90.2237p
  cdtot     33.2543a   33.2543a   17.5082a   22.8839a   33.2543a   33.2543a
  cgtot     28.4283a   28.4283a   15.1530a   18.2494a   28.4283a   28.4283a
  cstot     37.1828a   37.1828a   32.3045a   33.2133a   37.1828a   37.1828a
  cbtot     43.9374a   43.9374a   41.4635a   44.6516a   43.9374a   43.9374a
  cgs       17.0091a   17.0091a    7.1830a    7.6646a   17.0091a   17.0091a
  cgd       10.6808a   10.6808a    4.5682a    7.1829a   10.6808a   10.6808a



 subckt   xnand2_2   xnand2_2   xnand2_3   xnand2_3   xnand2_3   xnand2_3  
 element  2:mn1      2:mn2      3:mp2      3:mp1      3:mn1      3:mn2     
 model    0:nmos     0:nmos     0:pmos     0:pmos     0:nmos     0:nmos    
 region   Cutoff     Cutoff     Cutoff     Linear     Cutoff     Linear    
  id       127.0803f   12.4482f -3.751e-19 -278.2718p    1.0810p   63.9329p
  ibs      -52.9538f  5.783e-26  2.221e-28 -1.188e-26   -1.2447a  2.022e-26
  ibd     -909.9939f  -61.6783f   27.9434a   27.9434a -909.9799f   -1.7290a
  vgs      -52.9516m    0.        -6.0957u -900.0000m   -1.2445u  899.9939m
  vds      847.0423m   52.9516m  -20.1165u  -20.1165u  899.9786m    1.2445u
  vbs      -52.9516m    0.         0.         0.        -1.2445u    0.     
  vth      544.9000m  671.5852m -681.8296m -681.8296m  524.9596m  680.7513m
  vdsat     43.2181m   43.7698m  -46.7962m -223.2438m   43.0662m  196.1743m
  vod     -597.8516m -671.5852m  681.8235m -218.1704m -524.9608m  219.2426m
  beta     528.9543u  423.7186u   69.2338u   77.4020u  548.3096u  353.0839u
  gam eff  400.0000m  400.0000m  400.0000m  400.0000m  400.0000m  400.0000m
  gm         3.4571p  335.8388f   10.3987a    1.3126n   29.1416p  192.2466p
  gds      697.6666f  120.7312f   18.6445f   13.8328u    5.9843p   51.3703u
  gmb        1.0001p  105.2450f    3.1008a  297.7462p    8.4303p   53.3533p
  cdtot     17.5082a   22.8839a   23.6243a   33.2522a   17.5083a   36.1271a
  cgtot     15.1530a   18.2494a   18.2982a   28.4282a   15.6346a   30.4146a
  cstot     32.3045a   33.2133a   33.2054a   37.1839a   33.2133a   36.8387a
  cbtot     41.4635a   44.6516a   44.5018a   43.9372a   41.8907a   44.3134a
  cgs        7.1830a    7.6646a    7.6567a   17.0097a    7.6646a   17.7510a
  cgd        4.5682a    7.1829a    7.6564a   10.6801a    4.5682a   12.0534a



 subckt   xnand2_4   xnand2_4   xnand2_4   xnand2_4   xnand2_5   xnand2_5  
 element  4:mp2      4:mp1      4:mn1      4:mn2      5:mp2      5:mp1     
 model    0:pmos     0:pmos     0:nmos     0:nmos     0:pmos     0:pmos    
 region   Linear     Cutoff     Cutoff     Cutoff     Cutoff     Cutoff    
  id      -151.0368p -2.036e-19    1.5016p  246.8030f   -1.1823p   -1.1818p
  ibs     -1.188e-26  2.221e-28 -622.4100f  5.929e-25 -8.532e-25 -8.532e-25
  ibd       15.1674a   15.1674a -909.9891f -632.4075f  909.9948f  909.9948f
  vgs     -900.0000m   -6.0957u  277.5864m    0.       -20.1165u   -6.1667u
  vds      -10.9185u  -10.9185u  277.5816m  622.4075m -899.9948m -899.9948m
  vbs        0.         0.      -622.4075m    0.         0.         0.     
  vth     -681.8321m -681.8321m  744.4977m  573.0087m -436.4074m -436.4074m
  vdsat   -223.2416m  -46.7962m   44.1132m   43.3166m  -46.4773m  -46.4773m
  vod     -218.1679m  681.8260m -466.9112m -573.0087m  436.3873m  436.4012m
  beta      77.4018u   69.2336u  375.1399u  503.0351u   98.7210u   98.7210u
  gam eff  400.0000m  400.0000m  400.0000m  400.0000m  400.0000m  400.0000m
  gm       712.4138p    5.6442a   43.4967p    6.6561p   32.7275p   32.7149p
  gds       13.8330u   18.6459f    8.0937p    1.2688p   12.0541p   12.0495p
  gmb      161.6068p    1.6831a    8.6160p    1.9778p    8.4810p    8.4778p
  cdtot     33.2536a   23.6245a   20.6046a   18.4172a   17.5003a   17.5003a
  cgtot     28.4283a   18.2983a   19.1543a   15.8553a   15.2021a   15.2020a
  cstot     37.1832a   33.2054a   31.0248a   33.2133a   33.2055a   33.2054a
  cbtot     43.9373a   44.5019a   37.0157a   42.5790a   41.4739a   41.4740a
  cgs       17.0093a    7.6567a    9.2195a    7.6646a    7.6568a    7.6567a
  cgd       10.6806a    7.6565a    7.6646a    4.7888a    4.5602a    4.5602a



 subckt   xnand2_5   xnand2_5   xnand2_6   xnand2_6   xnand2_6   xnand2_6  
 element  5:mn1      5:mn2      6:mp2      6:mp1      6:mn1      6:mn2     
 model    0:nmos     0:nmos     0:pmos     0:pmos     0:nmos     0:nmos    
 region   Linear     Linear     Cutoff     Cutoff     Linear     Linear    
  id        70.9710p  196.6656p   -1.1820p   -1.1823p   70.9640p  196.6562p
  ibs       -3.8289a  2.021e-26 -8.532e-25 -8.532e-25   -3.8287a  2.022e-26
  ibd       -7.2379a   -5.3186a  909.9948f  909.9948f   -7.2374a   -5.3182a
  vgs      899.9900m  899.9799m  -10.9185u  -20.1165u  899.9761m  899.9891m
  vds        1.3816u    3.8286u -899.9948m -899.9948m    1.3815u    3.8283u
  vbs       -3.8286u    0.         0.         0.        -3.8283u    0.     
  vth      680.7521m  680.7508m -436.4074m -436.4074m  680.7521m  680.7508m
  vdsat    196.1713m  196.1652m  -46.4773m  -46.4773m  196.1620m  196.1714m
  vod      219.2380m  219.2290m  436.3965m  436.3873m  219.2240m  219.2382m
  beta     353.0847u  353.0878u   98.7210u   98.7210u  353.0885u  353.0853u
  gam eff  400.0000m  400.0000m  400.0000m  400.0000m  400.0000m  400.0000m
  gm       213.4167p  591.4319p   32.7192p   32.7275p  213.4152p  591.3675p
  gds       51.3695u   51.3677u   12.0510p   12.0541p   51.3673u   51.3691u
  gmb       59.2280p  164.1333p    8.4789p    8.4810p   59.2262p  164.1178p
  cdtot     36.1270a   36.1263a   17.5003a   17.5003a   36.1267a   36.1265a
  cgtot     30.4146a   30.4145a   15.2021a   15.2021a   30.4145a   30.4145a
  cstot     36.8387a   36.8391a   33.2055a   33.2055a   36.8388a   36.8390a
  cbtot     44.3133a   44.3134a   41.4740a   41.4739a   44.3133a   44.3134a
  cgs       17.7510a   17.7511a    7.6567a    7.6568a   17.7510a   17.7511a
  cgd       12.0534a   12.0532a    4.5602a    4.5602a   12.0533a   12.0532a



 ******
 * eda yan

 ****** transient analysis tnom=  25.000 temp=  25.000 ******
x

 time         voltage    voltage   
             n22        n23        
    0.          5.2101u    5.2098u 
   10.00000f    5.2101u    5.2098u 
   20.00000f    5.2101u    5.2098u 
   30.00000f    5.2101u    5.2098u 
   40.00000f    5.2101u    5.2098u 
   50.00000f    5.2101u    5.2098u 
   60.00000f    5.2101u    5.2098u 
   70.00000f    5.2101u    5.2098u 
   80.00000f    5.2101u    5.2098u 
   90.00000f    5.2101u    5.2098u 
  100.00000f    5.2101u    5.2098u 
  110.00000f    5.2101u    5.2098u 
  120.00000f    5.2101u    5.2098u 
  130.00000f    5.2101u    5.2098u 
  140.00000f    5.2101u    5.2098u 
  150.00000f    5.2101u    5.2098u 
  160.00000f    5.2101u    5.2098u 
  170.00000f    5.2101u    5.2098u 
  180.00000f    5.2101u    5.2098u 
  190.00000f    5.2101u    5.2098u 
  200.00000f    5.2101u    5.2098u 
  210.00000f    5.2101u    5.2098u 
  220.00000f    5.2101u    5.2098u 
  230.00000f    5.2101u    5.2098u 
  240.00000f    5.2101u    5.2098u 
  250.00000f    5.2101u    5.2098u 
  260.00000f    5.2101u    5.2098u 
  270.00000f    5.2101u    5.2098u 
  280.00000f    5.2101u    5.2098u 
  290.00000f    5.2101u    5.2098u 
  300.00000f    5.2101u    5.2098u 
  310.00000f    5.2101u    5.2098u 
  320.00000f    5.2101u    5.2098u 
  330.00000f    5.2101u    5.2098u 
  340.00000f    5.2101u    5.2098u 
  350.00000f    5.2101u    5.2098u 
  360.00000f    5.2101u    5.2098u 
  370.00000f    5.2101u    5.2098u 
  380.00000f    5.2101u    5.2098u 
  390.00000f    5.2101u    5.2098u 
  400.00000f    5.2101u    5.2098u 
  410.00000f    5.2101u    5.2098u 
  420.00000f    5.2101u    5.2098u 
  430.00000f    5.2101u    5.2098u 
  440.00000f    5.2101u    5.2098u 
  450.00000f    5.2101u    5.2098u 
  460.00000f    5.2101u    5.2098u 
  470.00000f    5.2101u    5.2098u 
  480.00000f    5.2101u    5.2098u 
  490.00000f    5.2101u    5.2098u 
  500.00000f    5.2101u    5.2098u 
  510.00000f    5.2101u    5.2098u 
  520.00000f    5.2101u    5.2098u 
  530.00000f    5.2101u    5.2098u 
  540.00000f    5.2101u    5.2098u 
  550.00000f    5.2101u    5.2098u 
  560.00000f    5.2101u    5.2098u 
  570.00000f    5.2101u    5.2098u 
  580.00000f    5.2101u    5.2098u 
  590.00000f    5.2101u    5.2098u 
  600.00000f    5.2101u    5.2098u 
  610.00000f    5.2101u    5.2098u 
  620.00000f    5.2101u    5.2098u 
  630.00000f    5.2101u    5.2098u 
  640.00000f    5.2101u    5.2098u 
  650.00000f    5.2101u    5.2098u 
  660.00000f    5.2101u    5.2098u 
  670.00000f    5.2101u    5.2098u 
  680.00000f    5.2101u    5.2098u 
  690.00000f    5.2101u    5.2098u 
  700.00000f    5.2101u    5.2098u 
  710.00000f    5.2101u    5.2098u 
  720.00000f    5.2101u    5.2098u 
  730.00000f    5.2101u    5.2098u 
  740.00000f    5.2101u    5.2098u 
  750.00000f    5.2101u    5.2098u 
  760.00000f    5.2101u    5.2098u 
  770.00000f    5.2101u    5.2098u 
  780.00000f    5.2101u    5.2098u 
  790.00000f    5.2101u    5.2098u 
  800.00000f    5.2101u    5.2098u 
  810.00000f    5.2101u    5.2098u 
  820.00000f    5.2101u    5.2098u 
  830.00000f    5.2101u    5.2098u 
  840.00000f    5.2101u    5.2098u 
  850.00000f    5.2101u    5.2098u 
  860.00000f    5.2101u    5.2098u 
  870.00000f    5.2101u    5.2098u 
  880.00000f    5.2101u    5.2098u 
  890.00000f    5.2101u    5.2098u 
  900.00000f    5.2101u    5.2098u 
  910.00000f    5.2101u    5.2098u 
  920.00000f    5.2101u    5.2098u 
  930.00000f    5.2101u    5.2098u 
  940.00000f    5.2101u    5.2098u 
  950.00000f    5.2101u    5.2098u 
  960.00000f    5.2101u    5.2098u 
  970.00000f    5.2101u    5.2098u 
  980.00000f    5.2101u    5.2098u 
  990.00000f    5.2101u    5.2098u 
    1.00000p    5.2101u    5.2098u 
    1.01000p   16.6152u   12.2788u 
    1.02000p   28.0202u   19.3479u 
    1.03000p   39.4252u   26.4169u 
    1.04000p   50.8302u   33.4860u 
    1.05000p   62.2352u   40.5550u 
    1.06000p   73.6402u   47.6241u 
    1.07000p   85.0452u   54.6931u 
    1.08000p   96.4502u   61.7622u 
    1.09000p  107.8553u   68.8312u 
    1.10000p  119.2603u   75.9003u 
    1.11000p  130.6653u   82.9693u 
    1.12000p  142.0703u   90.0384u 
    1.13000p  153.4753u   97.1074u 
    1.14000p  164.8803u  104.1765u 
    1.15000p  176.2853u  111.2455u 
    1.16000p  187.6904u  118.3146u 
    1.17000p  199.0954u  125.3836u 
    1.18000p  210.5004u  132.4527u 
    1.19000p  221.9054u  139.5217u 
    1.20000p  233.3104u  146.5908u 
    1.21000p  244.7154u  153.6598u 
    1.22000p  256.1204u  160.7289u 
    1.23000p  267.5254u  167.7979u 
    1.24000p  278.9305u  174.8670u 
    1.25000p  290.3355u  181.9360u 
    1.26000p  301.7405u  189.0050u 
    1.27000p  313.1455u  196.0741u 
    1.28000p  324.5505u  203.1431u 
    1.29000p  335.9555u  210.2122u 
    1.30000p  347.3605u  217.2812u 
    1.31000p  358.7656u  224.3503u 
    1.32000p  370.1706u  231.4193u 
    1.33000p  381.5756u  238.4884u 
    1.34000p  392.9806u  245.5574u 
    1.35000p  404.3856u  252.6265u 
    1.36000p  415.7906u  259.6955u 
    1.37000p  427.1956u  266.7646u 
    1.38000p  438.6007u  273.8336u 
    1.39000p  450.0057u  280.9027u 
    1.40000p  461.4107u  287.9717u 
    1.41000p  472.8157u  295.0408u 
    1.42000p  484.2207u  302.1098u 
    1.43000p  495.6257u  309.1789u 
    1.44000p  507.0307u  316.2479u 
    1.45000p  518.4357u  323.3170u 
    1.46000p  529.8408u  330.3860u 
    1.47000p  541.2458u  337.4551u 
    1.48000p  552.6508u  344.5241u 
    1.49000p  564.0558u  351.5932u 
    1.50000p  575.4608u  358.6622u 
    1.51000p  586.8658u  365.7313u 
    1.52000p  598.2708u  372.8003u 
    1.53000p  609.6759u  379.8694u 
    1.54000p  621.0809u  386.9384u 
    1.55000p  632.4859u  394.0075u 
    1.56000p  643.8909u  401.0765u 
    1.57000p  655.2959u  408.1456u 
    1.58000p  666.7009u  415.2146u 
    1.59000p  678.1059u  422.2837u 
    1.60000p  689.5110u  429.3527u 
    1.61000p  700.9160u  436.4218u 
    1.62000p  712.3210u  443.4908u 
    1.63000p  723.7260u  450.5599u 
    1.64000p  735.1310u  457.6289u 
    1.65000p  746.5360u  464.6980u 
    1.66000p  757.9410u  471.7670u 
    1.67000p  769.3460u  478.8361u 
    1.68000p  780.7511u  485.9051u 
    1.69000p  792.1561u  492.9742u 
    1.70000p  803.5611u  500.0432u 
    1.71000p  814.9661u  507.1123u 
    1.72000p  826.3711u  514.1813u 
    1.73000p  837.7761u  521.2504u 
    1.74000p  849.1811u  528.3194u 
    1.75000p  860.5862u  535.3885u 
    1.76000p  871.9912u  542.4575u 
    1.77000p  883.3962u  549.5266u 
    1.78000p  894.8012u  556.5956u 
    1.79000p  906.2062u  563.6647u 
    1.80000p  917.6112u  570.7337u 
    1.81000p  929.0162u  577.8028u 
    1.82000p  940.4212u  584.8718u 
    1.83000p  951.8263u  591.9409u 
    1.84000p  963.2313u  599.0099u 
    1.85000p  974.6363u  606.0790u 
    1.86000p  986.0413u  613.1480u 
    1.87000p  997.4463u  620.2170u 
    1.88000p    1.0089m  627.2861u 
    1.89000p    1.0203m  634.3551u 
    1.90000p    1.0317m  641.4242u 
    1.91000p    1.0431m  648.4932u 
    1.92000p    1.0545m  655.5623u 
    1.93000p    1.0659m  662.6313u 
    1.94000p    1.0773m  669.7004u 
    1.95000p    1.0887m  676.7694u 
    1.96000p    1.1001m  683.8385u 
    1.97000p    1.1115m  690.9075u 
    1.98000p    1.1229m  697.9766u 
    1.99000p    1.1343m  705.0456u 
    2.00000p    1.1457m  712.1147u 
    2.01000p    1.1567m  719.1340u 
    2.02000p    1.1676m  726.1534u 
    2.03000p    1.1786m  733.1728u 
    2.04000p    1.1895m  740.1921u 
    2.05000p    1.2005m  747.2115u 
    2.06000p    1.2115m  754.2308u 
    2.07000p    1.2224m  761.2502u 
    2.08000p    1.2334m  768.2695u 
    2.09000p    1.2443m  775.2889u 
    2.10000p    1.2553m  782.3082u 
    2.11000p    1.2663m  789.3276u 
    2.12000p    1.2772m  796.3469u 
    2.13000p    1.2882m  803.3663u 
    2.14000p    1.2991m  810.3857u 
    2.15000p    1.3101m  817.4050u 
    2.16000p    1.3211m  824.4244u 
    2.17000p    1.3320m  831.4437u 
    2.18000p    1.3430m  838.4631u 
    2.19000p    1.3539m  845.4824u 
    2.20000p    1.3649m  852.5018u 
    2.21000p    1.3759m  859.5211u 
    2.22000p    1.3868m  866.5405u 
    2.23000p    1.3978m  873.5598u 
    2.24000p    1.4087m  880.5792u 
    2.25000p    1.4197m  887.5986u 
    2.26000p    1.4307m  894.6179u 
    2.27000p    1.4416m  901.6373u 
    2.28000p    1.4526m  908.6566u 
    2.29000p    1.4635m  915.6760u 
    2.30000p    1.4745m  922.6953u 
    2.31000p    1.4855m  929.7147u 
    2.32000p    1.4964m  936.7340u 
    2.33000p    1.5074m  943.7534u 
    2.34000p    1.5183m  950.7727u 
    2.35000p    1.5293m  957.7921u 
    2.36000p    1.5403m  964.8115u 
    2.37000p    1.5512m  971.8308u 
