Using: /opt/synopsys/hspice/O-2018.09-SP2-2/hspice/linux64/hspice c17.sp
 ****** HSPICE -- O-2018.09-SP2-2 linux64 (May  9 2019) ******                  
  Copyright (c) 1986 - 2020 by Synopsys, Inc. All Rights Reserved.              
  This software and the associated documentation are proprietary
  to Synopsys, Inc. This software may only be used in accordance
  with the terms and conditions of a written license agreement with
  Synopsys, Inc. All other use, reproduction, or distribution of
  this software is strictly prohibited.
  Input File: c17.sp                                                            
  Command line options: /opt/synopsys/hspice/O-2018.09-SP2-2/hspice/linux64/hspice c17.sp
  Start time: Tue May 12 02:02:53 2020
 lic:  
 lic: FLEXlm: SDK_11.7.3 
 lic: USER:   mitsushij            HOSTNAME: sahand 
 lic: HOSTID: "80c16e72eecb"       PID:      75992 
 lic: Using FLEXlm license file: 
 lic: 1720@ics-lic2.usc.edu 
 lic: Checkout 1 hspice 
 lic: License/Maintenance for hspice will expire on 30-jun-2021/2019.06 
 lic: 1(in_use)/50(total) FLOATING license(s) on SERVER 1720@ics-lic2.usc.edu 
 lic:   
1****** HSPICE -- O-2018.09-SP2-2 linux64 (May  9 2019) ******                  
 ******  
 * eda yan

 ****** circuit name directory
 circuit number to circuit name directory
   number circuitname                     definition         multiplier
        0 main circuit
        1 xnand2_1.                       nand2              1.00 
        2 xnand2_2.                       nand2              1.00 
        3 xnand2_3.                       nand2              1.00 
        4 xnand2_4.                       nand2              1.00 
        5 xnand2_5.                       nand2              1.00 
        6 xnand2_6.                       nand2              1.00 
  **info** (c17.sp:24) DC voltage reset to initial transient source value in source 0:vn1. new dc=0.0000D+00
  **warning** (nmos:mn1 (./gate_inventory_gen.sp:18)) Warning:  Acde = 0.231197 may be too small in BSIM4 model with w=3.2e-08 l=1.6e-08.
  

  **warning** the following singular supplies were terminated to 1 meg resistor 
          supply       node1            node2
(c17.sp:10)vlo                     0:lo               defined in subckt 0                     0:0                defined in subckt 0               
      

Element variations(Local):   element              parameter
 **info** set option symb=1 internally to help for convergence.
 *****************************************************************
 ******  option summary
 ******
 runlvl  = 3         bypass  = 2.0000    
 **info** dc convergence successful at Newton-Raphson method 
 ******  
 * eda yan

 ****** operating point information tnom=  25.000 temp=  25.000 ******
 ****** operating point status is all       simulation time is     0.     
    node    =voltage      node    =voltage      node    =voltage

 +0:hi      = 700.0000m 0:lo      =   0.      0:n1      =   0.     
 +0:n10     = 699.9985m 0:n11     = 699.9985m 0:n16     = 699.7754m
 +0:n19     = 699.9518m 0:n2      =   0.      0:n22     = 425.4323u
 +0:n23     = 425.6903u 0:n3      =   0.      0:n6      =   0.     
 +0:n7      =   0.      1:n1      = 114.8070m 2:n1      = 114.8070m
 +3:n1      =  84.9180u 4:n1      = 504.3631m 5:n1      = 212.7914u
 +6:n1      = 212.8560u


 **** voltage sources

 subckt                                                                    
 element  0:vhi      0:vlo      0:vn1      0:vn2      0:vn3      0:vn6     
  volts    700.0000m    0.         0.         0.         0.         0.     
  current  -65.5073n    0.        14.5175p   14.2479p   14.9911p  473.5385f
  power     45.8551n    0.         0.         0.         0.         0.     

 subckt             
 element  0:vn7     
  volts      0.     
  current    5.7060p
  power      0.     

     total voltage source power dissipation=   45.8551n       watts




 **** mosfets


 subckt   xnand2_1   xnand2_1   xnand2_1   xnand2_1   xnand2_2   xnand2_2  
 element  1:mp2      1:mp1      1:mn1      1:mn2      2:mp2      2:mp1     
 model    0:pmos     0:pmos     0:nmos     0:nmos     0:pmos     0:pmos    
 region   Linear     Linear     Cutoff     Cutoff     Linear     Linear    
  id       -72.3004p  -72.3004p  109.0538p  108.3019p  -72.3372p  -72.3372p
  ibs     -4.040e-25 -4.040e-25 -114.8095f  1.169e-25 -4.040e-25 -4.040e-25
  ibd        2.1433a    2.1433a -709.9985f -124.6924f    2.1444a    2.1444a
  vgs     -700.0000m -700.0000m -114.8070m    0.      -700.0000m -700.0000m
  vds       -1.5428u   -1.5428u  585.1915m  114.8070m   -1.5436u   -1.5436u
  vbs        0.         0.      -114.8070m    0.         0.         0.     
  vth     -394.7685m -394.7685m  312.2149m  419.4744m -394.7685m -394.7685m
  vdsat   -294.2859m -294.2859m   41.6332m   42.7304m -294.2859m -294.2859m
  vod     -305.2315m -305.2315m -427.0219m -419.4744m -305.2315m -305.2315m
  beta     201.1169u  201.1169u    2.0841m    1.6250m  201.1169u  201.1169u
  gam eff  400.0000m  400.0000m  400.0000m  400.0000m  400.0000m  400.0000m
  gm       170.4247p  170.4247p    2.8621n    2.7858n  170.5114p  170.5114p
  gds       46.8618u   46.8618u  893.7207p  884.3711p   46.8618u   46.8618u
  gmb       43.7102p   43.7102p  674.8890p  708.2593p   43.7324p   43.7324p
  cdtot     32.2976a   32.2976a   18.2431a   22.1624a   32.2976a   32.2976a
  cgtot     24.9837a   24.9837a   13.0450a   16.0003a   24.9837a   24.9837a
  cstot     35.5210a   35.5210a   31.4088a   33.3260a   35.5210a   35.5210a
  cbtot     42.8408a   42.8408a   39.5494a   42.4307a   42.8408a   42.8408a
  cgs       14.5078a   14.5078a    6.7518a    7.7773a   14.5078a   14.5078a
  cgd       10.0562a   10.0562a    4.8220a    6.7517a   10.0562a   10.0562a



 subckt   xnand2_2   xnand2_2   xnand2_3   xnand2_3   xnand2_3   xnand2_3  
 element  2:mn1      2:mn2      3:mp2      3:mp1      3:mn1      3:mn2     
 model    0:nmos     0:nmos     0:pmos     0:pmos     0:nmos     0:nmos    
 region   Cutoff     Cutoff     Subth      Linear     Subth      Linear    
  id       109.0538p  108.3019p -118.2927f  -10.5229n   10.4667n   10.4770n
  ibs     -114.8095f  1.169e-25 -1.110e-28 -4.047e-25  -84.9264a  3.092e-25
  ibd     -709.9985f -124.6924f  311.6017a  311.6017a -709.7754f -117.9159a
  vgs     -114.8070m    0.        -1.5436u -700.0000m  -84.9180u  699.9985m
  vds      585.1915m  114.8070m -224.5726u -224.5726u  699.6905m   84.9180u
  vbs     -114.8070m    0.         0.         0.       -84.9180u    0.     
  vth      312.2149m  419.4744m -394.6967m -394.6967m  260.2480m  450.7090m
  vdsat     41.6332m   42.7304m  -47.2362m -294.3379m   41.1980m  208.6141m
  vod     -427.0219m -419.4744m  394.6951m -305.3033m -260.3329m  249.2894m
  beta       2.0841m    1.6250m  184.4803u  201.1340u    2.3526m    1.2071m
  gam eff  400.0000m  400.0000m  400.0000m  400.0000m  400.0000m  400.0000m
  gm         2.8621n    2.7858n    3.1967p   24.8058n  259.0929n   15.8362n
  gds      893.7207p  884.3711p  526.4469p   46.8528u   85.4228n  123.3661u
  gmb      674.8890p  708.2593p  720.9942f    6.3617n   58.6365n    4.6336n
  cdtot     18.2431a   22.1624a   23.7173a   32.2706a   18.2438a   32.4765a
  cgtot     13.0450a   16.0003a   16.9081a   24.9832a   14.0707a   25.0689a
  cstot     31.4088a   33.3260a   33.3013a   35.5360a   33.3253a   35.4710a
  cbtot     39.5494a   42.4307a   42.9207a   42.8389a   40.4411a   42.8830a
  cgs        6.7518a    7.7773a    7.7525a   14.5139a    7.7776a   14.4114a
  cgd        4.8220a    6.7517a    7.7505a   10.0495a    4.8220a   10.2928a



 subckt   xnand2_4   xnand2_4   xnand2_4   xnand2_4   xnand2_5   xnand2_5  
 element  4:mp2      4:mp1      4:mn1      4:mn2      5:mp2      5:mp1     
 model    0:pmos     0:pmos     0:nmos     0:nmos     0:pmos     0:pmos    
 region   Linear     Subth      Subth      Subth      Subth      Subth     
  id        -2.2585n  -25.3978f    2.2370n    2.2305n  -13.1404n  -13.0683n
  ibs     -4.043e-25    0.      -504.3657f  4.823e-25 -6.655e-25 -6.655e-25
  ibd       66.9363a   66.9363a -709.9518f -514.3631f  709.5746f  709.5746f
  vgs     -700.0000m   -1.5436u  195.6353m    0.      -224.5726u   -1.5428u
  vds      -48.1950u  -48.1950u  195.5887m  504.3631m -699.5746m -699.5746m
  vbs        0.         0.      -504.3631m    0.         0.         0.     
  vth     -394.7535m -394.7535m  481.3196m  313.4126m -169.3213m -169.3213m
  vdsat   -294.2968m  -47.2364m   43.1289m   41.6854m  -47.4609m  -47.4551m
  vod     -305.2465m  394.7520m -285.6843m -313.4126m  169.0967m  169.3197m
  beta     201.1205u  184.4605u    1.4141m    2.0781m  304.7957u  304.7939u
  gam eff  400.0000m  400.0000m  400.0000m  400.0000m  400.0000m  400.0000m
  gm         5.3237n  686.3504f   59.9760n   56.3924n  324.2666n  322.5529n
  gds       46.8599u  526.9161p   18.1612n   17.2752n  128.8555n  128.1705n
  gmb        1.3654n  154.8113f   10.6553n   13.2782n   63.2486n   62.9226n
  cdtot     32.2920a   23.7198a   21.1988a   19.0388a   18.2193a   18.2191a
  cgtot     24.9836a   16.9097a   17.9575a   14.3174a   13.9616a   13.9595a
  cstot     35.5241a   33.3013a   31.4210a   33.3262a   33.3084a   33.3064a
  cbtot     42.8404a   42.9217a   36.8844a   40.9902a   40.3763a   40.3765a
  cgs       14.5091a    7.7525a    9.0690a    7.7775a    7.7610a    7.7590a
  cgd       10.0548a    7.7520a    7.7776a    5.0686a    4.7964a    4.7963a



 subckt   xnand2_5   xnand2_5   xnand2_6   xnand2_6   xnand2_6   xnand2_6  
 element  5:mn1      5:mn2      6:mp2      6:mp1      6:mn1      6:mn2     
 model    0:nmos     0:nmos     0:pmos     0:pmos     0:nmos     0:nmos    
 region   Linear     Linear     Subth      Subth      Linear     Linear    
  id        26.2205n   26.2411n  -13.0833n  -13.1404n   26.2354n   26.2561n
  ibs     -212.8123a  3.083e-25 -6.655e-25 -6.655e-25 -212.8769a  3.093e-25
  ibd     -589.6592a -295.2739a  709.5743f  709.5743f -590.0160a -295.3634a
  vgs      699.7857m  699.7754m  -48.1950u -224.5726u  699.5626m  699.9518m
  vds      212.6409u  212.7914u -699.5743m -699.5743m  212.8343u  212.8560u
  vbs     -212.7914u    0.         0.         0.      -212.8560u    0.     
  vth      450.7140m  450.6742m -169.3214m -169.3214m  450.7140m  450.6742m
  vdsat    208.4750m  208.4911m  -47.4563m  -47.4609m  208.3316m  208.6046m
  vod      249.0717m  249.1012m  169.2732m  169.0968m  248.8486m  249.2776m
  beta       1.2073m    1.2074m  304.7942u  304.7956u    1.2076m    1.2072m
  gam eff  400.0000m  400.0000m  400.0000m  400.0000m  400.0000m  400.0000m
  gm        39.7145n   39.7363n  322.9099n  324.2658n   39.7974n   39.7115n
  gds      123.2783u  123.2879u  128.3132n  128.8552n  123.2365u  123.3208u
  gmb       11.6118n   11.6201n   62.9905n   63.2484n   11.6312n   11.6166n
  cdtot     32.4512a   32.4527a   18.2191a   18.2193a   32.4477a   32.4554a
  cgtot     25.0676a   25.0677a   13.9600a   13.9616a   25.0668a   25.0683a
  cstot     35.4816a   35.4833a   33.3068a   33.3084a   35.4828a   35.4824a
  cbtot     42.8788a   42.8819a   40.3764a   40.3763a   42.8788a   42.8819a
  cgs       14.4157a   14.4157a    7.7594a    7.7610a   14.4154a   14.4159a
  cgd       10.2870a   10.2871a    4.7963a    4.7964a   10.2863a   10.2876a



 ******
 * eda yan

 ****** transient analysis tnom=  25.000 temp=  25.000 ******
x

 time         voltage    voltage   
             n22        n23        
    0.        425.4323u  425.6903u 
  100.00000f  425.4323u  425.6903u 
  200.00000f  425.4323u  425.6903u 
  300.00000f  425.4323u  425.6903u 
  400.00000f  425.4323u  425.6903u 
  500.00000f  425.4323u  425.6903u 
  600.00000f  425.4323u  425.6903u 
  700.00000f  425.4323u  425.6903u 
  800.00000f  425.4323u  425.6903u 
  900.00000f  425.4323u  425.6903u 
    1.00000p  425.4323u  425.6903u 
    1.10000p  486.6416u  469.3156u 
    1.20000p  547.8509u  512.9410u 
    1.30000p  609.0601u  556.5663u 
    1.40000p  670.2694u  600.1916u 
    1.50000p  731.4787u  643.8169u 
    1.60000p  792.6880u  687.4422u 
    1.70000p  853.8973u  731.0675u 
    1.80000p  915.1066u  774.6928u 
    1.90000p  976.3159u  818.3182u 
    2.00000p    1.0375m  861.9435u 
    2.10000p    1.0898m  901.9290u 
    2.20000p    1.1421m  941.9146u 
    2.30000p    1.1945m  981.9002u 
    2.40000p    1.2325m    1.0127m 
    2.50000p    1.2512m    1.0310m 
    2.60000p    1.2698m    1.0493m 
    2.70000p    1.2884m    1.0676m 
    2.80000p    1.3071m    1.0859m 
    2.90000p    1.3257m    1.1042m 
    3.00000p    1.3443m    1.1224m 
    3.10000p    1.3629m    1.1407m 
    3.20000p    1.3816m    1.1590m 
    3.30000p    1.4002m    1.1773m 
    3.40000p    1.4188m    1.1956m 
    3.50000p    1.4346m    1.2103m 
    3.60000p    1.4266m    1.1954m 
    3.70000p    1.4186m    1.1806m 
    3.80000p    1.4106m    1.1657m 
    3.90000p    1.4026m    1.1508m 
    4.00000p    1.3945m    1.1360m 
    4.10000p    1.3865m    1.1211m 
    4.20000p    1.3785m    1.1063m 
    4.30000p    1.3705m    1.0914m 
    4.40000p    1.3625m    1.0765m 
    4.50000p    1.3545m    1.0617m 
    4.60000p    1.3465m    1.0468m 
    4.70000p    1.3385m    1.0319m 
    4.80000p    1.3305m    1.0171m 
    4.90000p    1.3225m    1.0022m 
    5.00000p    1.3145m  987.3428u 
    5.10000p    1.3064m  972.4785u 
    5.20000p    1.2984m  957.6143u 
    5.30000p    1.2904m  942.7501u 
    5.40000p    1.2824m  927.8859u 
    5.50000p    1.2744m  913.0217u 
    5.60000p    1.2664m  898.1574u 
    5.70000p    1.2584m  883.2932u 
    5.80000p    1.2504m  868.4290u 
    5.90000p    1.2424m  853.5648u 
    6.00000p    1.2344m  838.7006u 
    6.10000p    1.2264m  823.8363u 
    6.20000p    1.2183m  808.9721u 
    6.30000p    1.2103m  794.1079u 
    6.40000p    1.2023m  779.2437u 
    6.50000p    1.1943m  764.3794u 
    6.60000p    1.1863m  749.5152u 
    6.70000p    1.1783m  734.6510u 
    6.80000p    1.1703m  719.7868u 
    6.90000p    1.1623m  704.9226u 
    7.00000p    1.1476m  668.1422u 
    7.10000p    1.1217m  594.5922u 
    7.20000p    1.0957m  521.0422u 
    7.30000p    1.0698m  447.4922u 
    7.40000p    1.0439m  373.9422u 
    7.50000p    1.0179m  300.3922u 
    7.60000p  992.0187u  226.8423u 
    7.70000p  966.0917u  153.2923u 
    7.80000p  940.1647u   79.7423u 
    7.90000p  914.2376u    6.1923u 
    8.00000p  888.3106u  -67.3577u 
    8.10000p  862.3836u -140.9077u 
    8.20000p  836.4566u -214.4577u 
    8.30000p  810.5296u -288.0077u 
    8.40000p  784.6025u -361.5576u 
    8.50000p  758.6755u -435.1076u 
    8.60000p  732.7485u -508.6576u 
    8.70000p  706.8215u -582.2076u 
    8.80000p  680.8945u -655.7576u 
    8.90000p  654.9674u -729.3076u 
    9.00000p  629.0404u -802.8576u 
    9.10000p  603.1134u -876.4076u 
    9.20000p  577.1864u -949.9575u 
    9.30000p  551.2594u   -1.0235m 
    9.40000p  525.3323u   -1.0971m 
    9.50000p  499.4053u   -1.1706m 
    9.60000p  473.4783u   -1.2442m 
    9.70000p  447.5513u   -1.3177m 
    9.80000p  421.6243u   -1.3913m 
    9.90000p  368.3927u   -1.5418m 
   10.00000p  315.0835u   -1.6925m 
   10.10000p  261.7744u   -1.8432m 
   10.20000p  208.4652u   -1.9939m 
   10.30000p  155.1561u   -2.1447m 
   10.40000p  101.8469u   -2.2954m 
   10.50000p   48.5377u   -2.4461m 
   10.60000p   -4.7714u   -2.5968m 
   10.70000p  -58.0806u   -2.7476m 
   10.80000p -111.3897u   -2.8983m 
   10.90000p -164.6989u   -3.0490m 
   11.00000p -218.0081u   -3.1997m 
   11.10000p -271.3172u   -3.3505m 
   11.20000p -324.6264u   -3.5012m 
   11.30000p -377.9355u   -3.6519m 
   11.40000p -431.2447u   -3.8026m 
   11.50000p -484.5538u   -3.9534m 
   11.60000p -537.8630u   -4.1041m 
   11.70000p -591.1722u   -4.2548m 
   11.80000p -644.4813u   -4.4055m 
   11.90000p -697.7905u   -4.5563m 
   12.00000p -751.0996u   -4.7070m 
   12.10000p -804.4088u   -4.8577m 
   12.20000p -857.7180u   -5.0084m 
   12.30000p -911.0271u   -5.1591m 
   12.40000p -964.3363u   -5.3099m 
   12.50000p   -1.0176m   -5.4606m 
   12.60000p   -1.0710m   -5.6113m 
   12.70000p   -1.1243m   -5.7620m 
   12.80000p   -1.1776m   -5.9128m 
   12.90000p   -1.2309m   -6.0635m 
   13.00000p   -1.2842m   -6.2142m 
   13.10000p   -1.3155m   -6.1909m 
   13.20000p   -1.3453m   -6.1564m 
   13.30000p   -1.3752m   -6.1219m 
   13.40000p   -1.4050m   -6.0874m 
   13.50000p   -1.4349m   -6.0528m 
   13.60000p   -1.4647m   -6.0183m 
   13.70000p   -1.4946m   -5.9838m 
   13.80000p   -1.5244m   -5.9493m 
   13.90000p   -1.5543m   -5.9148m 
   14.00000p   -1.5842m   -5.8803m 
   14.10000p   -1.6140m   -5.8458m 
   14.20000p   -1.6439m   -5.8113m 
   14.30000p   -1.6737m   -5.7768m 
   14.40000p   -1.7036m   -5.7423m 
   14.50000p   -1.7334m   -5.7078m 
   14.60000p   -1.7633m   -5.6733m 
   14.70000p   -1.7932m   -5.6388m 
   14.80000p   -1.8230m   -5.6043m 
   14.90000p   -1.8529m   -5.5698m 
   15.00000p   -1.8827m   -5.5353m 
   15.10000p   -1.9126m   -5.5008m 
   15.20000p   -1.9424m   -5.4663m 
   15.30000p   -1.9723m   -5.4318m 
   15.40000p   -2.0021m   -5.3973m 
   15.50000p   -2.0320m   -5.3628m 
   15.60000p   -2.0619m   -5.3283m 
   15.70000p   -2.0917m   -5.2938m 
   15.80000p   -2.1216m   -5.2593m 
   15.90000p   -2.1514m   -5.2248m 
   16.00000p   -2.1813m   -5.1903m 
   16.10000p   -2.2111m   -5.1558m 
   16.20000p   -2.2337m   -5.1065m 
   16.30000p   -1.5545m   -3.6497m 
   16.40000p -875.2897u   -2.1929m 
   16.50000p -196.1089u -736.0128u 
   16.60000p  483.0720u  720.8270u 
   16.70000p    1.1623m    2.1777m 
   16.80000p    1.8414m    3.6345m 
   16.90000p    2.5206m    5.0913m 
   17.00000p    3.1998m    6.5482m 
   17.10000p    3.8790m    8.0050m 
   17.20000p    4.5582m    9.4619m 
   17.30000p    5.2373m   10.9187m 
   17.40000p    5.9165m   12.3755m 
   17.50000p    6.5957m   13.8324m 
   17.60000p    7.2749m   15.2892m 
   17.70000p    7.9541m   16.7461m 
   17.80000p    8.6332m   18.2029m 
   17.90000p    9.3124m   19.6597m 
   18.00000p    9.9916m   21.1166m 
   18.10000p   10.6708m   22.5734m 
   18.20000p   11.3500m   24.0303m 
   18.30000p   12.0291m   25.4871m 
   18.40000p   13.2602m   27.3853m 
   18.50000p   16.7371m   31.0794m 
   18.60000p   20.2141m   34.7735m 
   18.70000p   23.6910m   38.4677m 
   18.80000p   27.1679m   42.1618m 
   18.90000p   30.6448m   45.8559m 
   19.00000p   34.1218m   49.5501m 
   19.10000p   37.5987m   53.2442m 
   19.20000p   41.0756m   56.9383m 
   19.30000p   44.5526m   60.6325m 
   19.40000p   48.0295m   64.3266m 
   19.50000p   51.5064m   68.0208m 
   19.60000p   54.9833m   71.7149m 
   19.70000p   58.4603m   75.4090m 
   19.80000p   61.9372m   79.1032m 
   19.90000p   65.4141m   82.7973m 
   20.00000p   68.8911m   86.4914m 
   20.10000p   72.3680m   90.1856m 
   20.20000p   75.8449m   93.8797m 
   20.30000p   79.3219m   97.5738m 
   20.40000p   82.7988m  101.2680m 
   20.50000p   86.2757m  104.9621m 
   20.60000p   89.7526m  108.6563m 
   20.70000p   93.2296m  112.3504m 
   20.80000p   96.7065m  116.0445m 
   20.90000p  100.1834m  119.7387m 
   21.00000p  103.6604m  123.4328m 
   21.10000p  110.0483m  127.5682m 
   21.20000p  116.4362m  131.7037m 
   21.30000p  122.8242m  135.8391m 
   21.40000p  129.2121m  139.9746m 
   21.50000p  135.6000m  144.1100m 
   21.60000p  141.9880m  148.2454m 
   21.70000p  148.3759m  152.3809m 
   21.80000p  154.7639m  156.5163m 
   21.90000p  161.3058m  160.5020m 
   22.00000p  167.8795m  164.4569m 
   22.10000p  174.4533m  168.4117m 
   22.20000p  181.0270m  172.3665m 
   22.30000p  187.7344m  175.8700m 
   22.40000p  194.5953m  178.8550m 
   22.50000p  201.4562m  181.8399m 
   22.60000p  208.3171m  184.8249m 
   22.70000p  215.1780m  187.8099m 
   22.80000p  222.0389m  190.7948m 
   22.90000p  228.8997m  193.7798m 
   23.00000p  235.7606m  196.7648m 
   23.10000p  242.6215m  199.7497m 
   23.20000p  249.4824m  202.7347m 
   23.30000p  256.3433m  205.7197m 
   23.40000p  263.2042m  208.7046m 
   23.50000p  270.0651m  211.6896m 
   23.60000p  276.9260m  214.6746m 
   23.70000p  283.6636m  216.8476m 
